(1572904408.265013) can0 0A4#0000000000000000
(1572904408.265239) can0 0A3#EDBDD71EEEBD071F
(1572904408.269839) can0 0C0#0000000000000000
(1572904408.271958) can0 0AD#FFFF000000000000
(1572904408.272205) can0 0AC#00000000BD400000
(1572904408.272454) can0 0AB#0000000000000000
(1572904408.272698) can0 0AA#0400090000000000
(1572904408.272940) can0 0A8#2200ABE900000000
(1572904408.273184) can0 0A7#19000000FFFF0000
(1572904408.273430) can0 0A6#00000000FEFF0000
(1572904408.273667) can0 0A5#B50C000000002500
(1572904408.273917) can0 0A4#0000000000000000
(1572904408.274145) can0 0A3#EEBDD71EEEBD071F
(1572904408.279886) can0 0C0#0000000000000000
(1572904408.280956) can0 0AD#FFFF000000000000
(1572904408.281206) can0 0AC#00000000C0400000
(1572904408.281454) can0 0AB#0000000000000000
(1572904408.281698) can0 0AA#0400090000000000
(1572904408.281942) can0 0A8#2200ABE905000000
(1572904408.282184) can0 0A7#190000000200F7FF
(1572904408.282426) can0 0A6#FEFFFDFFFEFF0000
(1572904408.282664) can0 0A5#B50C000000002300
(1572904408.282914) can0 0A4#0000000000000000
(1572904408.283142) can0 0A3#EEBDD71EEFBD071F
(1572904408.289955) can0 0AD#0000000000000000
(1572904408.290201) can0 0AC#00000000C3400000
(1572904408.290451) can0 0AB#0000000000000000
(1572904408.290695) can0 0AA#0400090000000000
(1572904408.290939) can0 0A8#2200ABE90000FDFF
(1572904408.291181) can0 0A7#19000000FFFFFCFF
(1572904408.291425) can0 0A6#FEFF020000000000
(1572904408.291665) can0 0A5#B50C000000002600
(1572904408.291915) can0 0A4#0000000000000000
(1572904408.292142) can0 0A3#EEBDD71EEFBD071F
(1572904408.292391) can0 0C0#0000000000000000
(1572904408.298957) can0 0AD#FFFF000000000000
(1572904408.299203) can0 0AC#00000000C6400000
(1572904408.299453) can0 0AB#0000000000000000
(1572904408.299697) can0 0AA#0400090000000000
(1572904408.299941) can0 0A8#2200ABE9F7FF0000
(1572904408.300185) can0 0A7#1A0000000000FCFF
(1572904408.300427) can0 0A6#0000FDFF03000000
(1572904408.300665) can0 0A5#B50C000000002700
(1572904408.300915) can0 0A4#0000000000000000
(1572904408.301143) can0 0A3#EEBDD71EEEBD071F
(1572904408.301392) can0 0C0#0000000000000000
(1572904408.307956) can0 0AD#FFFF000000000000
(1572904408.308202) can0 0AC#00000100C9400000
(1572904408.308452) can0 0AB#0000000000000000
(1572904408.308696) can0 0AA#0400090000000000
(1572904408.308940) can0 0A8#2200ABE902000200
(1572904408.309182) can0 0A7#19000000FDFFF7FF
(1572904408.309427) can0 0A6#0200020000000000
(1572904408.309667) can0 0A5#B50C000000002600
(1572904408.309917) can0 0A4#0000000000000000
(1572904408.310145) can0 0A3#EEBDD71EEEBD071F
(1572904408.310442) can0 0C0#0000000000000000
(1572904408.310954) can0 036#00
(1572904408.311626) can0 032#00002D011F0100
(1572904408.316956) can0 0AD#0000000000000000
(1572904408.317202) can0 0AC#00000000CC400000
(1572904408.317452) can0 0AB#0000000000000000
(1572904408.317696) can0 0AA#0400090000000000
(1572904408.317936) can0 0A8#2200ABE90200FFFF
(1572904408.318180) can0 0A7#160000000000F9FF
(1572904408.318425) can0 0A6#FEFF000000000000
(1572904408.318663) can0 0A5#B50C000000002500
(1572904408.318913) can0 0A4#0000000000000000
(1572904408.319141) can0 0A3#EEBDD71EEEBD071F
(1572904408.320092) can0 0C0#0000000000000000
(1572904408.326044) can0 0AD#0000000000000000
(1572904408.326290) can0 0AC#00000000CF400000
(1572904408.326540) can0 0AB#0000000000000000
(1572904408.326784) can0 0AA#0400090000000000
(1572904408.327024) can0 0A8#2200ABE9FDFF0100
(1572904408.327266) can0 0A7#19000000F8FFF9FF
(1572904408.327512) can0 0A6#0200000000000000
(1572904408.327750) can0 0A5#B50C000000002700
(1572904408.328000) can0 0A4#0000000000000000
(1572904408.328228) can0 0A3#EEBDD71EEEBD071F
(1572904408.330178) can0 0C0#0000000000000000
(1572904408.334954) can0 0AD#FFFF000000000000
(1572904408.335200) can0 0AC#00000000D2400000
(1572904408.335450) can0 0AB#0000000000000000
(1572904408.335694) can0 0AA#0400090000000000
(1572904408.335938) can0 0A8#2200ABE9FDFFFEFF
(1572904408.336180) can0 0A7#1B000000FDFFFEFF
(1572904408.336428) can0 0A6#0000020000000000
(1572904408.336669) can0 0A5#B50C000000002900
(1572904408.336919) can0 0A4#0000000000000000
(1572904408.337147) can0 0A3#EEBDD71EEEBD071F
(1572904408.340209) can0 0C0#0000000000000000
(1572904408.343956) can0 0AD#FFFF000000000000
(1572904408.344202) can0 0AC#00000000D5400000
(1572904408.344452) can0 0AB#0000000000000000
(1572904408.344695) can0 0AA#0400090000000000
(1572904408.344939) can0 0A8#2200ABE9F7FF0000
(1572904408.345185) can0 0A7#18000000FFFFFEFF
(1572904408.345431) can0 0A6#0500020000000000
(1572904408.345673) can0 0A5#B50C000000002800
(1572904408.345923) can0 0A4#0000000000000000
(1572904408.346151) can0 0A3#EEBDD71EEEBD071F
(1572904408.350249) can0 0C0#0000000000000000
(1572904408.352957) can0 0AD#FFFF000000000000
(1572904408.353195) can0 0AE#1000B41911051820
(1572904408.353441) can0 0AC#00000000D8400000
(1572904408.353691) can0 0AB#0000000000000000
(1572904408.353935) can0 0AA#0400090000000000
(1572904408.354168) can0 0A9#9700FB00FF017504
(1572904408.354410) can0 0A8#2200ABE9F4FF0000
(1572904408.354650) can0 0A7#19000000FDFFF9FF
(1572904408.354892) can0 0A6#05000500FEFF0000
(1572904408.355132) can0 0A5#B50C000000002600
(1572904408.355382) can0 0A4#0000000000000000
(1572904408.355610) can0 0A3#EEBDD71EEEBD071F
(1572904408.355841) can0 0A2#F0D8F0D865050000
(1572904408.356069) can0 0A1#BC0049083908F0D8
(1572904408.356303) can0 0A0#CB00CD00CD00C000
(1572904408.360311) can0 0C0#0000000000000000
(1572904408.361955) can0 0AD#FFFF000000000000
(1572904408.362205) can0 0AC#00000000DB400000
(1572904408.362455) can0 0AB#0000000000000000
(1572904408.362699) can0 0AA#0400090000000000
(1572904408.362939) can0 0A8#2200ABE902000100
(1572904408.363184) can0 0A7#1A000000FAFFF9FF
(1572904408.363429) can0 0A6#0000FEFFFEFF0000
(1572904408.363670) can0 0A5#B50C000000002800
(1572904408.363920) can0 0A4#0000000000000000
(1572904408.364148) can0 0A3#EEBDD71EEEBD071F
(1572904408.370333) can0 0C0#0000000000000000
(1572904408.370955) can0 0AD#FFFF000000000000
(1572904408.371203) can0 0AC#00000000DE400000
(1572904408.371453) can0 0AB#0000000000000000
(1572904408.371698) can0 0AA#0400090000000000
(1572904408.371939) can0 0A8#2200ABE900000000
(1572904408.372183) can0 0A7#18000000FFFFFCFF
(1572904408.372433) can0 0A6#0000000000000000
(1572904408.372675) can0 0A5#B50C000000002800
(1572904408.372793) can0 036#00
(1572904408.373043) can0 0A4#0000000000000000
(1572904408.373271) can0 0A3#EEBDD71EEEBD071F
(1572904408.373498) can0 032#000030011F0100
(1572904408.379958) can0 0AD#FFFF000000000000
(1572904408.380204) can0 0AC#00000200E1400000
(1572904408.380453) can0 0AB#0000000000000000
(1572904408.380697) can0 0AA#0400090000000000
(1572904408.380935) can0 0A8#2200ABE901000500
(1572904408.381181) can0 0A7#180000000000FEFF
(1572904408.381423) can0 0A6#0200FBFFF5FF0000
(1572904408.381661) can0 0A5#B50C000000002500
(1572904408.381912) can0 0A4#0000000000000000
(1572904408.382138) can0 0A3#EEBDD71EEEBD071F
(1572904408.382388) can0 0C0#0000000000000000
(1572904408.389104) can0 0AD#0000000000000000
(1572904408.389348) can0 0AC#0000FFFFE4400000
(1572904408.389597) can0 0AB#0000000000000000
(1572904408.389841) can0 0AA#0400090000000000
(1572904408.390085) can0 0A8#2200ABE9F7FFFEFF
(1572904408.390327) can0 0A7#19000000FFFFF9FF
(1572904408.390573) can0 0A6#0200050002000000
(1572904408.390813) can0 0A5#B50C000000002400
(1572904408.391063) can0 0A4#0000000000000000
(1572904408.391291) can0 0A3#EEBDD71EEEBD071F
(1572904408.391540) can0 0C0#0000000000000000
(1572904408.397954) can0 0AD#0000000000000000
(1572904408.398200) can0 0AC#00000100E7400000
(1572904408.398450) can0 0AB#0000000000000000
(1572904408.398694) can0 0AA#0400090000000000
(1572904408.398934) can0 0A8#2200ABE902000100
(1572904408.399180) can0 0A7#1A000000FFFF0000
(1572904408.399426) can0 0A6#0000FEFF00000000
(1572904408.399666) can0 0A5#B50C000000002400
(1572904408.399916) can0 0A4#0000000000000000
(1572904408.400141) can0 0A3#EDBDD71EEEBD071F
(1572904408.400455) can0 0C0#0000000000000000
(1572904408.406955) can0 0AD#FFFF000000000000
(1572904408.407202) can0 0AC#00000100EA400000
(1572904408.407453) can0 0AB#0000000000000000
(1572904408.407696) can0 0AA#0400090000000000
(1572904408.407938) can0 0A8#2200ABE901000100
(1572904408.408184) can0 0A7#180000000000F9FF
(1572904408.408424) can0 0A6#0000FEFF09000000
(1572904408.408664) can0 0A5#B60C000000002300
(1572904408.408914) can0 0A4#0000000000000000
(1572904408.409142) can0 0A3#EDBDD71EEFBD071F
(1572904408.410507) can0 0C0#0000000000000000
(1572904408.416017) can0 0AD#FFFF000000000000
(1572904408.416263) can0 0AC#00000000ED400000
(1572904408.416514) can0 0AB#0000000000000000
(1572904408.416757) can0 0AA#0400090000000000
(1572904408.416997) can0 0A8#2200ABE9F9FF0000
(1572904408.417242) can0 0A7#1A0000000000F9FF
(1572904408.417488) can0 0A6#0200020000000000
(1572904408.417730) can0 0A5#B50C000000002800
(1572904408.417980) can0 0A4#0000000000000000
(1572904408.418208) can0 0A3#EEBDD71EEFBD071F
(1572904408.420579) can0 0C0#0000000000000000
(1572904408.425015) can0 0AD#FFFF000000000000
(1572904408.425265) can0 0AC#00000000F0400000
(1572904408.425515) can0 0AB#0000000000000000
(1572904408.425758) can0 0AA#0400090000000000
(1572904408.425997) can0 0A8#2200ABE9FCFF0100
(1572904408.426240) can0 0A7#1A000000FFFFFCFF
(1572904408.426486) can0 0A6#02000000EFFF0000
(1572904408.426726) can0 0A5#B60C000000002600
(1572904408.426976) can0 0A4#0000000000000000
(1572904408.427204) can0 0A3#EEBDD71EEEBD071F
(1572904408.430626) can0 0C0#0000000000000000
(1572904408.434015) can0 0AD#FFFF000000000000
(1572904408.434263) can0 0AC#00000000F3400000
(1572904408.434515) can0 0AB#0000000000000000
(1572904408.434757) can0 0AA#0400090000000000
(1572904408.434999) can0 0A8#2200ABE9FCFFFEFF
(1572904408.435245) can0 0A7#18000000FFFFF7FF
(1572904408.435495) can0 0A6#0000020008000000
(1572904408.435734) can0 0A5#B60C000000002600
(1572904408.435984) can0 0A4#0000000000000000
(1572904408.436212) can0 0A3#EEBDD71EEEBD071F
(1572904408.440661) can0 0C0#0000000000000000
(1572904408.440918) can0 036#00
(1572904408.441578) can0 032#00002D011F0100
(1572904408.443015) can0 0AD#FFFF000000000000
(1572904408.443263) can0 0AC#00000000F6400000
(1572904408.443515) can0 0AB#0000000000000000
(1572904408.443757) can0 0AA#0400090000000000
(1572904408.443999) can0 0A8#2200ABE900000000
(1572904408.444245) can0 0A7#18000000FDFFFCFF
(1572904408.444495) can0 0A6#0000000000000000
(1572904408.444737) can0 0A5#B60C000000002700
(1572904408.444987) can0 0A4#0000000000000000
(1572904408.445215) can0 0A3#EEBDD71EEEBD071F
(1572904408.450728) can0 0C0#0000000000000000
(1572904408.452100) can0 0AD#0000000000000000
(1572904408.452338) can0 0AE#1000B41911051820
(1572904408.452586) can0 0AC#00000000F9400000
(1572904408.452836) can0 0AB#0000000000000000
(1572904408.453080) can0 0AA#0400090000000000
(1572904408.453316) can0 0A9#9700FB00FF016D04
(1572904408.453557) can0 0A8#2200ABE900000000
(1572904408.453806) can0 0A7#18000000FFFFF9FF
(1572904408.454051) can0 0A6#0200000002000000
(1572904408.454291) can0 0A5#B50C000000002400
(1572904408.454541) can0 0A4#0000000000000000
(1572904408.454769) can0 0A3#EEBDD71EEEBD071F
(1572904408.455001) can0 0A2#F0D8F0D865050000
(1572904408.455227) can0 0A1#BD0049083908F0D8
(1572904408.455461) can0 0A0#CB00CD00CD00C200
(1572904408.460785) can0 0C0#0000000000000000
(1572904408.461035) can0 0AD#FFFF000000000000
(1572904408.461282) can0 0AC#00000000FC400000
(1572904408.461533) can0 0AB#0000000000000000
(1572904408.461776) can0 0AA#0400090000000000
(1572904408.462020) can0 0A8#2200ABE905000000
(1572904408.462266) can0 0A7#180000000000F9FF
(1572904408.462514) can0 0A6#FEFFFEFF02000000
(1572904408.462752) can0 0A5#B50C000000002300
(1572904408.463002) can0 0A4#0000000000000000
(1572904408.463229) can0 0A3#EEBDD71EEEBD071F
(1572904408.470009) can0 0AD#FFFF000000000000
(1572904408.470259) can0 0AC#00000000FF400000
(1572904408.470509) can0 0AB#0000000000000000
(1572904408.470753) can0 0AA#0400090000000000
(1572904408.470993) can0 0A8#2200ABE90200FFFF
(1572904408.471235) can0 0A7#19000000FDFFFCFF
(1572904408.471480) can0 0A6#FEFF000000000000
(1572904408.471718) can0 0A5#B50C000000002500
(1572904408.471968) can0 0A4#0000000000000000
(1572904408.472196) can0 0A3#EEBDD71EEEBD071F
(1572904408.472445) can0 0C0#0000000000000000
(1572904408.479006) can0 0AD#FFFF000000000000
(1572904408.479253) can0 0AC#0000000002410000
(1572904408.479503) can0 0AB#0000000000000000
(1572904408.479747) can0 0AA#0400090000000000
(1572904408.479987) can0 0A8#2200ABE9FDFF0100
(1572904408.480231) can0 0A7#190000000400FCFF
(1572904408.480475) can0 0A6#02000000FEFF0000
(1572904408.480721) can0 0A5#B60C000000002400
(1572904408.480971) can0 0A4#0000000000000000
(1572904408.481199) can0 0A3#EEBDD71EEEBD071F
(1572904408.481448) can0 0C0#0000000000000000
(1572904408.488008) can0 0AD#FFFF000000000000
(1572904408.488254) can0 0AC#0000FFFF05410000
(1572904408.488504) can0 0AB#0000000000000000
(1572904408.488748) can0 0AA#0400090000000000
(1572904408.488988) can0 0A8#2200ABE9FAFF0000
(1572904408.489233) can0 0A7#180000000000F7FF
(1572904408.489475) can0 0A6#02000200FEFF0000
(1572904408.489718) can0 0A5#B60C000000002200
(1572904408.489967) can0 0A4#0000000000000000
(1572904408.490195) can0 0A3#EEBDD71EEEBD071F
(1572904408.490949) can0 0C0#0000000000000000
(1572904408.497005) can0 0AD#FFFF000000000000
(1572904408.497251) can0 0AC#0000010008410000
(1572904408.497501) can0 0AB#0000000000000000
(1572904408.497745) can0 0AA#0400090000000000
(1572904408.497985) can0 0A8#2200ABE904000300
(1572904408.498228) can0 0A7#160000000000FCFF
(1572904408.498474) can0 0A6#0000FBFF02000000
(1572904408.498712) can0 0A5#B50C000000002300
(1572904408.498962) can0 0A4#0000000000000000
(1572904408.499199) can0 067#200000004D95CB0B
(1572904408.499427) can0 0A3#EEBDD71EEEBD071F
(1572904408.501005) can0 0C0#0000000000000000
(1572904408.502526) can0 036#00
(1572904408.503182) can0 032#00002D011F0100
(1572904408.506004) can0 0AD#FFFF000000000000
(1572904408.506247) can0 0AC#0000FFFF0B410000
(1572904408.506497) can0 0AB#0000000000000000
(1572904408.506741) can0 0AA#0400090000000000
(1572904408.506979) can0 0A8#2200ABE90500FEFF
(1572904408.507223) can0 0A7#18000000FFFFFCFF
(1572904408.507469) can0 0A6#FBFF0000FBFF0000
(1572904408.507711) can0 0A5#B60C000000002100
(1572904408.507961) can0 0A4#0000000000000000
(1572904408.508189) can0 0A3#EEBDD71EEFBD071F
(1572904408.511060) can0 0C0#0000000000000000
(1572904408.515092) can0 0AD#FFFF000000000000
(1572904408.515338) can0 0AC#000000000E410000
(1572904408.515588) can0 0AB#0000000000000000
(1572904408.515832) can0 0AA#0400090000000000
(1572904408.516072) can0 0A8#2200ABE9FAFF0000
(1572904408.516314) can0 0A7#180000000600FCFF
(1572904408.516558) can0 0A6#02000000FEFF0000
(1572904408.516800) can0 0A5#B50C000000002000
(1572904408.517050) can0 0A4#0000000000000000
(1572904408.517278) can0 0A3#EEBDD71EEFBD071F
(1572904408.521092) can0 0C0#0000000000000000
(1572904408.524000) can0 0AD#0000000000000000
(1572904408.524246) can0 0AC#0000000011410000
(1572904408.524496) can0 0AB#0000000000000000
(1572904408.524740) can0 0AA#0400090000000000
(1572904408.524984) can0 0A8#2200ABE9FDFFFEFF
(1572904408.525226) can0 0A7#19000000FDFFF7FF
(1572904408.525470) can0 0A6#00000200F8FF0000
(1572904408.525708) can0 0A5#B50C000000002300
(1572904408.525958) can0 0A4#0000000000000000
(1572904408.526186) can0 0A3#EEBDD71EEFBD071F
(1572904408.531137) can0 0C0#0000000000000000
(1572904408.532997) can0 0AD#0000000000000000
(1572904408.533243) can0 0AC#0000000014410000
(1572904408.533493) can0 0AB#0000000000000000
(1572904408.533737) can0 0AA#0400090000000000
(1572904408.533979) can0 0A8#2200ABE900000000
(1572904408.534225) can0 0A7#180000000000F9FF
(1572904408.534471) can0 0A6#00000000FEFF0000
(1572904408.534709) can0 0A5#B50C000000002500
(1572904408.534959) can0 0A4#0000000000000000
(1572904408.535187) can0 0A3#EEBDD71EEEBD071F
(1572904408.541194) can0 0C0#0000000000000000
(1572904408.541998) can0 0AD#FFFF000000000000
(1572904408.542244) can0 0AC#0000000017410000
(1572904408.542494) can0 0AB#0000000000000000
(1572904408.542738) can0 0AA#0400090000000000
(1572904408.542980) can0 0A8#2200ABE900000000
(1572904408.543224) can0 0A7#19000000FFFFF3FF
(1572904408.543472) can0 0A6#0000000002000000
(1572904408.543712) can0 0A5#B50C000000002400
(1572904408.543962) can0 0A4#0000000000000000
(1572904408.544190) can0 0A3#EEBDD71EEEBD071F
(1572904408.550995) can0 0AD#0000000000000000
(1572904408.551233) can0 0AE#1000B41911051820
(1572904408.551481) can0 0AC#000000001A410000
(1572904408.551731) can0 0AB#0000000000000000
(1572904408.551975) can0 0AA#0400090000000000
(1572904408.552211) can0 0A9#9700FB0000027304
(1572904408.552451) can0 0A8#2200ABE9FAFF0000
(1572904408.552696) can0 0A7#180000000200F9FF
(1572904408.552942) can0 0A6#02000200FBFF0000
(1572904408.553180) can0 0A5#B50C000000002500
(1572904408.553430) can0 0A4#0000000000000000
(1572904408.553658) can0 0A3#EEBDD71EEEBD071F
(1572904408.553890) can0 0A2#F0D8F0D865050000
(1572904408.554118) can0 0A1#BC0049083908F0D8
(1572904408.554352) can0 0A0#CB00CD00CD00C000
(1572904408.554601) can0 0C0#0000000000000000
(1572904408.559995) can0 0AD#FFFF000000000000
(1572904408.560241) can0 0AC#000000001D410000
(1572904408.560491) can0 0AB#0000000000000000
(1572904408.560735) can0 0AA#0400090000000000
(1572904408.560977) can0 0A8#2200ABE900000000
(1572904408.561222) can0 0A7#190000000000FCFF
(1572904408.561466) can0 0A6#00000000FEFF0000
(1572904408.561706) can0 0A5#B50C000000002400
(1572904408.561956) can0 0A4#0000000000000000
(1572904408.562184) can0 0A3#EEBDD71EEEBD071F
(1572904408.562434) can0 0C0#0000000000000000
(1572904408.568993) can0 0AD#0000000000000000
(1572904408.569241) can0 0AC#0000000020410000
(1572904408.569492) can0 0AB#0000000000000000
(1572904408.569736) can0 0AA#0400090000000000
(1572904408.569973) can0 0A8#2200ABE90500FEFF
(1572904408.570219) can0 0A7#1A0000000200F9FF
(1572904408.570463) can0 0A6#FBFF0000FEFF0000
(1572904408.570701) can0 0A5#B50C000000002700
(1572904408.570951) can0 0A4#0000000000000000
(1572904408.571179) can0 0A3#EEBDD71EEEBD071F
(1572904408.571296) can0 036#00
(1572904408.571689) can0 0C0#0000000000000000
(1572904408.572223) can0 032#00002D011F0100
(1572904408.578079) can0 0AD#0000000000000000
(1572904408.578327) can0 0AC#0000000023410000
(1572904408.578577) can0 0AB#0000000000000000
(1572904408.578821) can0 0AA#0400090000000000
(1572904408.579065) can0 0A8#2200ABE905000000
(1572904408.579308) can0 0A7#18000000F8FFF9FF
(1572904408.579553) can0 0A6#0000FDFF05000000
(1572904408.579794) can0 0A5#B50C000000002900
(1572904408.580044) can0 0A4#0000000000000000
(1572904408.580272) can0 0A3#EEBDD71EEEBD071F
(1572904408.581405) can0 0C0#0000000000000000
(1572904408.586991) can0 0AD#FFFF000000000000
(1572904408.587239) can0 0AC#0000000026410000
(1572904408.587489) can0 0AB#0000000000000000
(1572904408.587732) can0 0AA#0400090000000000
(1572904408.587972) can0 0A8#2200ABE902000100
(1572904408.588220) can0 0A7#18000000FFFFF9FF
(1572904408.588464) can0 0A6#0000FDFF00000000
(1572904408.588704) can0 0A5#B50C000000002C00
(1572904408.588954) can0 0A4#0000000000000000
(1572904408.589182) can0 0A3#EEBDD71EEEBD071F
(1572904408.591451) can0 0C0#0000000000000000
(1572904408.595991) can0 0AD#FFFF000000000000
(1572904408.596233) can0 0AC#0000FEFF29410000
(1572904408.596483) can0 0AB#0000000000000000
(1572904408.596727) can0 0AA#0400090000000000
(1572904408.596969) can0 0A8#2200ABE900000000
(1572904408.597213) can0 0A7#18000000FFFFFCFF
(1572904408.597458) can0 0A6#00000000FEFF0000
(1572904408.597698) can0 0A5#B50C000000002C00
(1572904408.597948) can0 0A4#0000000000000000
(1572904408.598176) can0 0A3#EEBDD71EEFBD071F
(1572904408.601530) can0 0C0#0000000000000000
(1572904408.604988) can0 0AD#0000000000000000
(1572904408.605236) can0 0AC#000000002C410000
(1572904408.605486) can0 0AB#0000000000000000
(1572904408.605730) can0 0AA#0400090000000000
(1572904408.605970) can0 0A8#2200ABE90200FEFF
(1572904408.606212) can0 0A7#19000000FFFFF9FF
(1572904408.606457) can0 0A6#FEFF000000000000
(1572904408.606700) can0 0A5#B50C000000002E00
(1572904408.606949) can0 0A4#0000000000000000
(1572904408.607177) can0 0A3#EEBDD71EEFBD071F
(1572904408.611574) can0 0C0#0000000000000000
(1572904408.613984) can0 0AD#0100000000000000
(1572904408.614228) can0 0AC#0000FEFF2F410000
(1572904408.614478) can0 0AB#0000000000000000
(1572904408.614722) can0 0AA#0400090000000000
(1572904408.614961) can0 0A8#2200ABE90200FBFF
(1572904408.615205) can0 0A7#1A0000000000FCFF
(1572904408.615451) can0 0A6#FBFF020000000000
(1572904408.615693) can0 0A5#B50C000000002E00
(1572904408.615943) can0 0A4#0000000000000000
(1572904408.616171) can0 0A3#EEBDD71EEEBD071F
(1572904408.621621) can0 0C0#0000000000000000
(1572904408.622984) can0 0AD#0000000000000000
(1572904408.623231) can0 0AC#0000000032410000
(1572904408.623481) can0 0AB#0000000000000000
(1572904408.623726) can0 0AA#0400090000000000
(1572904408.623966) can0 0A8#2200ABE900000000
(1572904408.624210) can0 0A7#16000000FFFFFCFF
(1572904408.624456) can0 0A6#00000000FEFF0000
(1572904408.624700) can0 0A5#B50C000000003000
(1572904408.624950) can0 0A4#0000000000000000
(1572904408.625178) can0 0A3#EEBDD71EEEBD071F
(1572904408.631664) can0 0C0#0000000000000000
(1572904408.631985) can0 0AD#FFFF000000000000
(1572904408.632231) can0 0AC#0000000035410000
(1572904408.632481) can0 0AB#0000000000000000
(1572904408.632724) can0 0AA#0400090000000000
(1572904408.632842) can0 036#00
(1572904408.633082) can0 0A8#2200ABE9FAFF0000
(1572904408.633324) can0 0A7#16000000FDFFF9FF
(1572904408.633548) can0 032#00002D011F0100
(1572904408.633793) can0 0A6#0200020000000000
(1572904408.634037) can0 0A5#B50C000000003000
(1572904408.634287) can0 0A4#0000000000000000
(1572904408.634515) can0 0A3#EEBDD71EEFBD071F
(1572904408.641069) can0 0AD#FFFF000000000000
(1572904408.641315) can0 0AC#0000020038410000
(1572904408.641565) can0 0AB#0000000000000000
(1572904408.641809) can0 0AA#0400090000000000
(1572904408.642047) can0 0A8#2200ABE908000500
(1572904408.642289) can0 0A7#1B0000000400F9FF
(1572904408.642534) can0 0A6#0000FEFF00000000
(1572904408.642778) can0 0A5#B50C000000003000
(1572904408.643028) can0 0A4#0000000000000000
(1572904408.643256) can0 0A3#EEBDD71EEFBD071F
(1572904408.643505) can0 0C0#0000000000000000
(1572904408.649981) can0 0AD#0000000000000000
(1572904408.650219) can0 0AE#1000B41911051820
(1572904408.650465) can0 0AC#000000003B410000
(1572904408.650715) can0 0AB#0000000000000000
(1572904408.650959) can0 0AA#0400090000000000
(1572904408.651193) can0 0A9#9700FB00FF016E04
(1572904408.651433) can0 0A8#2200ABE9FAFF0000
(1572904408.651683) can0 0A7#190000000000F0FF
(1572904408.651929) can0 0A6#0200020000000000
(1572904408.652168) can0 0A5#B50C000000003200
(1572904408.652418) can0 0A4#0000000000000000
(1572904408.652646) can0 0A3#EEBDD71EEEBD071F
(1572904408.652879) can0 0A2#F0D8F0D865050000
(1572904408.653106) can0 0A1#BC0049083908F0D8
(1572904408.653342) can0 0A0#CA00CD00CD00C000
(1572904408.653591) can0 0C0#0000000000000000
(1572904408.658981) can0 0AD#FFFF000000000000
(1572904408.659230) can0 0AC#000000003E410000
(1572904408.659480) can0 0AB#0000000000000000
(1572904408.659723) can0 0AA#0400090000000000
(1572904408.659964) can0 0A8#2200ABE9FAFF0000
(1572904408.660207) can0 0A7#190000000400FEFF
(1572904408.660449) can0 0A6#0200020005000000
(1572904408.660689) can0 0A5#B50C000000003200
(1572904408.660939) can0 0A4#0000000000000000
(1572904408.661167) can0 0A3#EEBDD71EEEBD071F
(1572904408.661930) can0 0C0#0000000000000000
(1572904408.667976) can0 0AD#FFFF000000000000
(1572904408.668224) can0 0AC#0000000041410000
(1572904408.668474) can0 0AB#0000000000000000
(1572904408.668718) can0 0AA#0400090000000000
(1572904408.668958) can0 0A8#2200ABE902000100
(1572904408.669202) can0 0A7#18000000FFFFFCFF
(1572904408.669446) can0 0A6#0000FEFF02000000
(1572904408.669686) can0 0A5#B50C000000003500
(1572904408.669936) can0 0A4#0000000000000000
(1572904408.670163) can0 0A3#EEBDD71EEEBD071F
(1572904408.671879) can0 0C0#0000000000000000
(1572904408.676978) can0 0AD#FFFF000000000000
(1572904408.677224) can0 0AC#0000000044410000
(1572904408.677474) can0 0AB#0000000000000000
(1572904408.677718) can0 0AA#0400090000000000
(1572904408.677958) can0 0A8#2200ABE902000500
(1572904408.678204) can0 0A7#180000000900FCFF
(1572904408.678448) can0 0A6#0200FAFFFBFF0000
(1572904408.678688) can0 0A5#B50C000000003400
(1572904408.678938) can0 0A4#0000000000000000
(1572904408.679166) can0 0A3#EEBDD71EEEBD071F
(1572904408.681904) can0 0C0#0000000000000000
(1572904408.685976) can0 0AD#FFFF000000000000
(1572904408.686221) can0 0AC#0000000047410000
(1572904408.686471) can0 0AB#0000000000000000
(1572904408.686715) can0 0AA#0400090000000000
(1572904408.686957) can0 0A8#2200ABE900000000
(1572904408.687201) can0 0A7#160000000000F9FF
(1572904408.687447) can0 0A6#0000000008000000
(1572904408.687687) can0 0A5#B50C000000003700
(1572904408.687937) can0 0A4#0000000000000000
(1572904408.688165) can0 0A3#EEBDD71EEEBD071F
(1572904408.691983) can0 0C0#0000000000000000
(1572904408.694973) can0 0AD#FFFF000000000000
(1572904408.695219) can0 0AC#000000004A410000
(1572904408.695469) can0 0AB#0000000000000000
(1572904408.695713) can0 0AA#0400090000000000
(1572904408.695953) can0 0A8#2200ABE902000100
(1572904408.696195) can0 0A7#19000000FDFFFCFF
(1572904408.696443) can0 0A6#0000FDFF02000000
(1572904408.696683) can0 0A5#B50C000000003600
(1572904408.696933) can0 0A4#0000000000000000
(1572904408.697161) can0 0A3#EEBDD71EEEBD071F
(1572904408.700985) can0 036#00
(1572904408.701645) can0 032#000045011F0100
(1572904408.702022) can0 0C0#0000000000000000
(1572904408.704062) can0 0AD#FFFF000000000000
(1572904408.704306) can0 0AC#000001004D410000
(1572904408.704556) can0 0AB#0000000000000000
(1572904408.704799) can0 0AA#0400090000000000
(1572904408.705040) can0 0A8#2200ABE908000200
(1572904408.705287) can0 0A7#1A00000000000000
(1572904408.705531) can0 0A6#FBFFFAFFFEFF0000
(1572904408.705771) can0 0A5#B50C000000003800
(1572904408.706021) can0 0A4#0000000000000000
(1572904408.706249) can0 0A3#EEBDD71EEEBD071F
(1572904408.712081) can0 0C0#0000000000000000
(1572904408.712973) can0 0AD#FFFF000000000000
(1572904408.713221) can0 0AC#0000010050410000
(1572904408.713471) can0 0AB#0000000000000000
(1572904408.713715) can0 0AA#0400090000000000
(1572904408.713957) can0 0A8#2200ABE900000000
(1572904408.714203) can0 0A7#16000000FFFF0000
(1572904408.714448) can0 0A6#00000000FEFF0000
(1572904408.714688) can0 0A5#B50C000000003800
(1572904408.714938) can0 0A4#0000000000000000
(1572904408.715166) can0 0A3#EEBDD71EEEBD071F
(1572904408.721970) can0 0AD#FFFF000000000000
(1572904408.722216) can0 0AC#0000000053410000
(1572904408.722466) can0 0AB#0000000000000000
(1572904408.722710) can0 0AA#0400090000000000
(1572904408.722950) can0 0A8#2200ABE902000100
(1572904408.723193) can0 0A7#18000000FDFFF7FF
(1572904408.723440) can0 0A6#0000FDFFFEFF0000
(1572904408.723679) can0 0A5#B50C000000003700
(1572904408.723929) can0 0A4#0000000000000000
(1572904408.724157) can0 0A3#EEBDD71EEEBD071F
(1572904408.724407) can0 0C0#0000000000000000
(1572904408.730968) can0 0AD#FFFF000000000000
(1572904408.731214) can0 0AC#0000000056410000
(1572904408.731464) can0 0AB#0000000000000000
(1572904408.731708) can0 0AA#0400090000000000
(1572904408.731950) can0 0A8#2200ABE900000000
(1572904408.732194) can0 0A7#180000000000FCFF
(1572904408.732446) can0 0A6#00000000FBFF0000
(1572904408.732685) can0 0A5#B50C000000003700
(1572904408.732935) can0 0A4#0000000000000000
(1572904408.733163) can0 0A3#EEBDD71EEEBD071F
(1572904408.733413) can0 0C0#0000000000000000
(1572904408.739967) can0 0AD#0000000000000000
(1572904408.740212) can0 0AC#0000000059410000
(1572904408.740462) can0 0AB#0000000000000000
(1572904408.740707) can0 0AA#0400090000000000
(1572904408.740949) can0 0A8#2200ABE900000000
(1572904408.741193) can0 0A7#18000000FDFFFEFF
(1572904408.741438) can0 0A6#0000000003000000
(1572904408.741678) can0 0A5#B50C000000003400
(1572904408.741928) can0 0A4#0000000000000000
(1572904408.742156) can0 0A3#EEBDD71EEEBD071F
(1572904408.742441) can0 0C0#0000000000000000
(1572904408.748967) can0 0AD#FFFF000000000000
(1572904408.749205) can0 0AE#1000B41911051820
(1572904408.749453) can0 0AC#000000005C410000
(1572904408.749703) can0 0AB#0000000000000000
(1572904408.749947) can0 0AA#0400090000000000
(1572904408.750183) can0 0A9#9700FB00FF016D04
(1572904408.750423) can0 0A8#2200ABE9FEFF0100
(1572904408.750665) can0 0A7#19000000FFFFF9FF
(1572904408.750911) can0 0A6#0200000000000000
(1572904408.751150) can0 0A5#B50C000000003700
(1572904408.751400) can0 0A4#0000000000000000
(1572904408.751628) can0 0A3#EEBDD71EEEBD071F
(1572904408.751860) can0 0A2#F0D8F0D865050000
(1572904408.752088) can0 0A1#BC0049083908F0D8
(1572904408.752326) can0 0A0#CB00CE00CD00C200
(1572904408.752575) can0 0C0#0000000000000000
(1572904408.757963) can0 0AD#FFFF000000000000
(1572904408.758213) can0 0AC#000000005F410000
(1572904408.758463) can0 0AB#0000000000000000
(1572904408.758707) can0 0AA#0400090000000000
(1572904408.758947) can0 0A8#2200ABE90200FFFF
(1572904408.759189) can0 0A7#1A000000FDFFF5FF
(1572904408.759435) can0 0A6#FEFF000000000000
(1572904408.759675) can0 0A5#B50C000000003400
(1572904408.759925) can0 0A4#0000000000000000
(1572904408.760153) can0 0A3#EEBDD71EEEBD071F
(1572904408.762336) can0 0C0#0000000000000000
(1572904408.762597) can0 036#00
(1572904408.763257) can0 032#00002D011F0100
(1572904408.767051) can0 0AD#FFFF000000000000
(1572904408.767298) can0 0AC#0000000062410000
(1572904408.767549) can0 0AB#0000000000000000
(1572904408.767792) can0 0AA#0400090000000000
(1572904408.768032) can0 0A8#2200ABE902000100
(1572904408.768276) can0 0A7#19000000FFFFF7FF
(1572904408.768518) can0 0A6#02000500FEFF0000
(1572904408.768760) can0 0A5#B50C000000003100
(1572904408.769010) can0 0A4#0000000000000000
(1572904408.769238) can0 0A3#EEBDD71EEEBD071F
(1572904408.772362) can0 0C0#0000000000000000
(1572904408.775962) can0 0AD#FFFF000000000000
(1572904408.776210) can0 0AC#0000000065410000
(1572904408.776460) can0 0AB#0000000000000000
(1572904408.776704) can0 0AA#0400090000000000
(1572904408.776946) can0 0A8#2200ABE900000000
(1572904408.777190) can0 0A7#160000000000F9FF
(1572904408.777436) can0 0A6#00000000FEFF0000
(1572904408.777675) can0 0A5#B50C000000003400
(1572904408.777925) can0 0A4#0000000000000000
(1572904408.778153) can0 0A3#EEBDD71EEEBD071F
(1572904408.782448) can0 0C0#0000000000000000
(1572904408.784960) can0 0AD#FFFF000000000000
(1572904408.785206) can0 0AC#0000020068410000
(1572904408.785456) can0 0AB#0000000000000000
(1572904408.785700) can0 0AA#0400090000000000
(1572904408.785940) can0 0A8#2200ABE902000500
(1572904408.786188) can0 0A7#190000000000F9FF
(1572904408.786430) can0 0A6#0200FAFF03000000
(1572904408.786670) can0 0A5#B50C000000003400
(1572904408.786920) can0 0A4#0000000000000000
(1572904408.787147) can0 0A3#EEBDD71EEEBD071F
(1572904408.792490) can0 0C0#0000000000000000
(1572904408.793960) can0 0AD#FFFF000000000000
(1572904408.794206) can0 0AC#000000006B410000
(1572904408.794456) can0 0AB#0000000000000000
(1572904408.794699) can0 0AA#0400090000000000
(1572904408.794943) can0 0A8#2200ABE902000200
(1572904408.795189) can0 0A7#1A000000FAFFF9FF
(1572904408.795437) can0 0A6#0000FDFF02000000
(1572904408.795675) can0 0A5#B50C000000003300
(1572904408.795925) can0 0A4#0000000000000000
(1572904408.796149) can0 0A3#EEBDE71EEEBD171F
(1572904408.802540) can0 0C0#0000000000000000
(1572904408.802956) can0 0AD#0000000000000000
(1572904408.803202) can0 0AC#000000006E410000
(1572904408.803451) can0 0AB#0000000000000000
(1572904408.803695) can0 0AA#0400090000000000
(1572904408.803938) can0 0A8#2200ABE900000000
(1572904408.804181) can0 0A7#1A0000000400FEFF
(1572904408.804433) can0 0A6#00000000FBFF0000
(1572904408.804673) can0 0A5#B50C000000003200
(1572904408.804923) can0 0A4#0000000000000000
(1572904408.805147) can0 0A3#EEBDE71EEEBD171F
(1572904408.811959) can0 0AD#FFFF000000000000
(1572904408.812205) can0 0AC#0000000071410000
(1572904408.812454) can0 0AB#0000000000000000
(1572904408.812698) can0 0AA#0400090000000000
(1572904408.812938) can0 0A8#2200ABE90300FFFF
(1572904408.813184) can0 0A7#16000000FAFFFCFF
(1572904408.813428) can0 0A6#FEFFFFFF00000000
(1572904408.813670) can0 0A5#B50C000000003100
(1572904408.813920) can0 0A4#0000000000000000
(1572904408.814147) can0 0A3#EEBDD71EEEBD071F
(1572904408.814396) can0 0C0#0000000000000000
(1572904408.820956) can0 0AD#FFFF000000000000
(1572904408.821202) can0 0AC#0000000074410000
(1572904408.821452) can0 0AB#0000000000000000
(1572904408.821696) can0 0AA#0400090000000000
(1572904408.821938) can0 0A8#2200ABE9FEFF0100
(1572904408.822178) can0 0A7#19000000FFFFFEFF
(1572904408.822422) can0 0A6#FEFF020000000000
(1572904408.822664) can0 0A5#B50C000000002D00
(1572904408.822913) can0 0A4#0000000000000000
(1572904408.823142) can0 0A3#EEBDD71EEFBD071F
(1572904408.823391) can0 0C0#0000000000000000
(1572904408.830047) can0 0AD#FFFF000000000000
(1572904408.830293) can0 0AC#0000000077410000
(1572904408.830542) can0 0AB#0000000000000000
(1572904408.830786) can0 0AA#0400090000000000
(1572904408.831028) can0 0A8#2200ABE906000000
(1572904408.831270) can0 0A7#1B0000000400FCFF
(1572904408.831388) can0 036#00
(1572904408.831632) can0 0A6#FDFFFCFFFBFF0000
(1572904408.831874) can0 0A5#B50C000000002E00
(1572904408.832097) can0 032#00002D011F0100
(1572904408.832347) can0 0A4#0000000000000000
(1572904408.832575) can0 0A3#EEBDD71EEFBD071F
(1572904408.832824) can0 0C0#0000000000000000
(1572904408.838958) can0 0AD#FFFF000000000000
(1572904408.839204) can0 0AC#000000007A410000
(1572904408.839453) can0 0AB#0000000000000000
(1572904408.839698) can0 0AA#0400090000000000
(1572904408.839939) can0 0A8#2200ABE9FEFFFEFF
(1572904408.840189) can0 0A7#1B0000000000F9FF
(1572904408.840435) can0 0A6#00000100FBFF0000
(1572904408.840675) can0 0A5#B50C000000002C00
(1572904408.840925) can0 0A4#0000000000000000
(1572904408.841153) can0 0A3#EEBDD71EEEBD071F
(1572904408.842739) can0 0C0#0000000000000000
(1572904408.847960) can0 0AD#FFFF000000000000
(1572904408.848198) can0 0AE#1000B41911051820
(1572904408.848446) can0 0AC#000000007D410000
(1572904408.848696) can0 0AB#0000000000000000
(1572904408.848940) can0 0AA#0400090000000000
(1572904408.849173) can0 0A9#9700FB00FF016B04
(1572904408.849415) can0 0A8#2200ABE9FBFF0000
(1572904408.849658) can0 0A7#18000000FAFFFCFF
(1572904408.849902) can0 0A6#02000100FBFF0000
(1572904408.850143) can0 0A5#B50C000000002D00
(1572904408.850393) can0 0A4#0000000000000000
(1572904408.850621) can0 0A3#EEBDD71EEEBD071F
(1572904408.850853) can0 0A2#F0D8F0D865050000
(1572904408.851081) can0 0A1#BC0049083908F0D8
(1572904408.851315) can0 0A0#CB00CE00CD00C000
(1572904408.852796) can0 0C0#0000000000000000
(1572904408.856956) can0 0AD#0000000000000000
(1572904408.857204) can0 0AC#0000000080410000
(1572904408.857454) can0 0AB#0000000000000000
(1572904408.857698) can0 0AA#0400090000000000
(1572904408.857940) can0 0A8#2200ABE9FBFF0000
(1572904408.858186) can0 0A7#1A000000FAFFF9FF
(1572904408.858432) can0 0A6#0200010000000000
(1572904408.858671) can0 0A5#B50C000000002B00
(1572904408.858921) can0 0A4#0000000000000000
(1572904408.859149) can0 0A3#EEBDD71EEEBD071F
(1572904408.862872) can0 0C0#0000000000000000
(1572904408.865958) can0 0AD#FFFF000000000000
(1572904408.866206) can0 0AC#0000000083410000
(1572904408.866456) can0 0AB#0000000000000000
(1572904408.866700) can0 0AA#0400090000000000
(1572904408.866942) can0 0A8#2200ABE9FEFFFEFF
(1572904408.867184) can0 0A7#19000000FDFFF7FF
(1572904408.867430) can0 0A6#0000010002000000
(1572904408.867669) can0 0A5#B50C000000002C00
(1572904408.867919) can0 0A4#0000000000000000
(1572904408.868147) can0 0A3#EEBDD71EEEBD071F
(1572904408.872915) can0 0C0#0000000000000000
(1572904408.874959) can0 0AD#FFFF000000000000
(1572904408.875206) can0 0AC#0000000086410000
(1572904408.875457) can0 0AB#0000000000000000
(1572904408.875700) can0 0AA#0400090000000000
(1572904408.875942) can0 0A8#2200ABE900000000
(1572904408.876184) can0 0A7#19000000FFFFFCFF
(1572904408.876432) can0 0A6#0000FFFF02000000
(1572904408.876674) can0 0A5#B50C000000002E00
(1572904408.876924) can0 0A4#0000000000000000
(1572904408.877152) can0 0A3#EEBDD71EEFBD071F
(1572904408.882963) can0 0C0#0000000000000000
(1572904408.883957) can0 0AD#0000000000000000
(1572904408.884202) can0 0AC#0000FFFF89410000
(1572904408.884452) can0 0AB#0000000000000000
(1572904408.884696) can0 0AA#0400090000000000
(1572904408.884936) can0 0A8#2200ABE9FCFFFDFF
(1572904408.885182) can0 0A7#18000000FFFFF7FF
(1572904408.885430) can0 0A6#0000040000000000
(1572904408.885670) can0 0A5#B50C000000002C00
(1572904408.885920) can0 0A4#0000000000000000
(1572904408.886148) can0 0A3#EEBDD71EEEBD071F
(1572904408.892670) can0 036#00
(1572904408.893108) can0 0AD#FFFF000000000000
(1572904408.893354) can0 0AC#000000008C410000
(1572904408.893604) can0 0AB#0000000000000000
(1572904408.893848) can0 0AA#0400090000000000
(1572904408.894087) can0 0A8#2200ABE90300FFFF
(1572904408.894331) can0 0A7#19000000FAFFF7FF
(1572904408.894573) can0 0A6#FDFFFFFF11000000
(1572904408.894811) can0 0A5#B50C000000002A00
(1572904408.895061) can0 0A4#0000000000000000
(1572904408.895289) can0 0A3#EEBDD71EEEBD071F
(1572904408.895538) can0 0C0#0000000000000000
(1572904408.895761) can0 032#00002D011F0100
(1572904408.901957) can0 0AD#0000000000000000
(1572904408.902205) can0 0AC#000000008F410000
(1572904408.902455) can0 0AB#0000000000000000
(1572904408.902699) can0 0AA#0400090000000000
(1572904408.902943) can0 0A8#2200ABE9FEFFFEFF
(1572904408.903187) can0 0A7#18000000FFFFFEFF
(1572904408.903435) can0 0A6#00000100FEFF0000
(1572904408.903677) can0 0A5#B50C000000002900
(1572904408.903926) can0 0A4#0000000000000000
(1572904408.904154) can0 0A3#EEBDD71EEFBD071F
(1572904408.904403) can0 0C0#0000000000000000
(1572904408.910957) can0 0AD#FFFF000000000000
(1572904408.911203) can0 0AC#0000FFFF92410000
(1572904408.911454) can0 0AB#0000000000000000
(1572904408.911698) can0 0AA#0400090000000000
(1572904408.911937) can0 0A8#2200ABE90000FEFF
(1572904408.912179) can0 0A7#1A0000000200FCFF
(1572904408.912421) can0 0A6#FDFF0100FEFF0000
(1572904408.912663) can0 0A5#B50C000000002900
(1572904408.912913) can0 0A4#0000000000000000
(1572904408.913141) can0 0A3#EEBDD71EEFBD071F
(1572904408.913412) can0 0C0#0000000000000000
(1572904408.920020) can0 0AD#FFFF000000000000
(1572904408.920264) can0 0AC#0000FFFF95410000
(1572904408.920514) can0 0AB#0000000000000000
(1572904408.920758) can0 0AA#0400090000000000
(1572904408.920998) can0 0A8#2200ABE90000FEFF
(1572904408.921244) can0 0A7#190000000000F7FF
(1572904408.921483) can0 0A6#FDFF010005000000
(1572904408.921725) can0 0A5#B50C000000002900
(1572904408.921975) can0 0A4#0000000000000000
(1572904408.922203) can0 0A3#EEBDD71EEEBD071F
(1572904408.923182) can0 0C0#0000000000000000
(1572904408.929020) can0 0AD#FFFF000000000000
(1572904408.929266) can0 0AC#0000000098410000
(1572904408.929516) can0 0AB#0000000000000000
(1572904408.929760) can0 0AA#0400090000000000
(1572904408.930000) can0 0A8#2200ABE9FEFFFFFF
(1572904408.930244) can0 0A7#1A0000000000F5FF
(1572904408.930492) can0 0A6#00000100FEFF0000
(1572904408.930734) can0 0A5#B50C000000002900
(1572904408.930984) can0 0A4#0000000000000000
(1572904408.931211) can0 0A3#EEBDD71EEEBD071F
(1572904408.933225) can0 0C0#0000000000000000
(1572904408.938020) can0 0AD#FFFF000000000000
(1572904408.938265) can0 0AC#000000009B410000
(1572904408.938515) can0 0AB#0000000000000000
(1572904408.938759) can0 0AA#0400090000000000
(1572904408.939001) can0 0A8#2200ABE900000000
(1572904408.939245) can0 0A7#18000000FDFFF9FF
(1572904408.939493) can0 0A6#0000FFFF02000000
(1572904408.939734) can0 0A5#B50C000000002800
(1572904408.939985) can0 0A4#0000000000000000
(1572904408.940212) can0 0A3#EEBDD71EEEBD071F
(1572904408.943305) can0 0C0#0000000000000000
(1572904408.947019) can0 0AD#FFFF000000000000
(1572904408.947257) can0 0AE#1000B41911051820
(1572904408.947503) can0 0AC#000000009E410000
(1572904408.947752) can0 0AB#0000000000000000
(1572904408.947996) can0 0AA#0400090000000000
(1572904408.948230) can0 0A9#9700FB00FF016B04
(1572904408.948472) can0 0A8#2200ABE900000000
(1572904408.948714) can0 0A7#19000000FAFFFCFF
(1572904408.948958) can0 0A6#0000FFFFFEFF0000
(1572904408.949200) can0 0A5#B50C000000002800
(1572904408.949450) can0 0A4#0000000000000000
(1572904408.949678) can0 0A3#EEBDD71EEEBD071F
(1572904408.949910) can0 0A2#F0D8F0D865050000
(1572904408.950138) can0 0A1#BC0049083908F0D8
(1572904408.950372) can0 0A0#CB00CD00CD00C000
(1572904408.953354) can0 0C0#0000000000000000
(1572904408.956104) can0 0AD#0100000000000000
(1572904408.956351) can0 0AC#00000000A1410000
(1572904408.956601) can0 0AB#0000000000000000
(1572904408.956846) can0 0AA#0400090000000000
(1572904408.957089) can0 0A8#2200ABE905000000
(1572904408.957330) can0 0A7#19000000FFFFFCFF
(1572904408.957575) can0 0A6#FEFFFCFFFEFF0000
(1572904408.957812) can0 0A5#B50C000000002700
(1572904408.958063) can0 0A4#0000000000000000
(1572904408.958290) can0 0A3#EEBDD71EEEBD071F
(1572904408.961092) can0 036#00
(1572904408.961752) can0 032#00002D011F0100
(1572904408.963406) can0 0C0#0000000000000000
(1572904408.965014) can0 0AD#0100000000000000
(1572904408.965260) can0 0AC#00000000A4410000
(1572904408.965510) can0 0AB#0000000000000000
(1572904408.965754) can0 0AA#0400090000000000
(1572904408.965991) can0 0A8#2200ABE90900FCFF
(1572904408.966238) can0 0A7#16000000FFFFF7FF
(1572904408.966482) can0 0A6#F7FF000000000000
(1572904408.966722) can0 0A5#B50C000000002400
(1572904408.966972) can0 0A4#0000000000000000
(1572904408.967200) can0 0A3#EEBDD71EEEBD071F
(1572904408.973435) can0 0C0#0000000000000000
(1572904408.974013) can0 0AD#FFFF000000000000
(1572904408.974259) can0 0AC#00000100A7410000
(1572904408.974509) can0 0AB#0000000000000000
(1572904408.974753) can0 0AA#0400090000000000
(1572904408.974997) can0 0A8#2200ABE902000200
(1572904408.975241) can0 0A7#1D000000FFFFF3FF
(1572904408.975485) can0 0A6#0000FDFFFBFF0000
(1572904408.975723) can0 0A5#B50C000000002300
(1572904408.975973) can0 0A4#0000000000000000
(1572904408.976201) can0 0A3#EEBDD71EEEBD071F
(1572904408.983013) can0 0AD#FFFF000000000000
(1572904408.983258) can0 0AC#00000000AA410000
(1572904408.983508) can0 0AB#0000000000000000
(1572904408.983752) can0 0AA#0400090000000000
(1572904408.983994) can0 0A8#2200ABE900000000
(1572904408.984240) can0 0A7#180000000000F9FF
(1572904408.984488) can0 0A6#0000000002000000
(1572904408.984730) can0 0A5#B50C000000002200
(1572904408.984980) can0 0A4#0000000000000000
(1572904408.985208) can0 0A3#EEBDD71EEEBD071F
(1572904408.985457) can0 0C0#0000000000000000
(1572904408.992011) can0 0AD#FFFF000000000000
(1572904408.992259) can0 0AC#00000000AD410000
(1572904408.992509) can0 0AB#0000000000000000
(1572904408.992753) can0 0AA#0400090000000000
(1572904408.992997) can0 0A8#2200ABE905000000
(1572904408.993241) can0 0A7#1B0000000200F7FF
(1572904408.993487) can0 0A6#FDFFFDFFFEFF0000
(1572904408.993725) can0 0A5#B50C000000002500
(1572904408.993975) can0 0A4#0000000000000000
(1572904408.994203) can0 0A3#EEBDD71EEEBD071F
(1572904408.994452) can0 0C0#0000000000000000
(1572904409.001008) can0 0AD#FFFF000000000000
(1572904409.001258) can0 0AC#00000000B0410000
(1572904409.001508) can0 0AB#0000000000000000
(1572904409.001752) can0 0AA#0400090000000000
(1572904409.001994) can0 0A8#2200ABE900000000
(1572904409.002242) can0 0A7#18000000FFFFF9FF
(1572904409.002486) can0 0A6#0000FFFFFEFF0000
(1572904409.002724) can0 0A5#B50C000000002500
(1572904409.002974) can0 0A4#0000000000000000
(1572904409.003201) can0 0A3#EEBDD71EEEBD071F
(1572904409.003953) can0 0C0#0000000000000000
(1572904409.008117) can0 067#200000004D95CB0B
(1572904409.010007) can0 0AD#FFFF000000000000
(1572904409.010256) can0 0AC#0000FFFFB3410000
(1572904409.010505) can0 0AB#0000000000000000
(1572904409.010749) can0 0AA#0400090000000000
(1572904409.010991) can0 0A8#2200ABE9FBFFFDFF
(1572904409.011233) can0 0A7#18000000FAFFFCFF
(1572904409.011477) can0 0A6#00000400FEFF0000
(1572904409.011717) can0 0A5#B50C000000002400
(1572904409.011967) can0 0A4#0000000000000000
(1572904409.012194) can0 0A3#EEBDD71EEEBD071F
(1572904409.013628) can0 0C0#0000000000000000
(1572904409.019094) can0 0AD#FFFF000000000000
(1572904409.019340) can0 0AC#00000000B6410000
(1572904409.019590) can0 0AB#0000000000000000
(1572904409.019834) can0 0AA#0400090000000000
(1572904409.020076) can0 0A8#2200ABE909000000
(1572904409.020324) can0 0A7#1900000002000000
(1572904409.020566) can0 0A6#FAFFF9FF00000000
(1572904409.020808) can0 0A5#B50C000000002200
(1572904409.021058) can0 0A4#0000000000000000
(1572904409.021286) can0 0A3#EEBDD71EEEBD071F
(1572904409.022696) can0 036#00
(1572904409.023354) can0 032#00002D011C0100
(1572904409.023732) can0 0C0#0000000000000000
(1572904409.028006) can0 0AD#FFFF000000000000
(1572904409.028254) can0 0AC#00000000B9410000
(1572904409.028504) can0 0AB#0000000000000000
(1572904409.028748) can0 0AA#0400090000000000
(1572904409.028988) can0 0A8#2200ABE90200FFFF
(1572904409.029232) can0 0A7#190000000000FCFF
(1572904409.029476) can0 0A6#FDFF000000000000
(1572904409.029714) can0 0A5#B50C000000002300
(1572904409.029963) can0 0A4#0000000000000000
(1572904409.030191) can0 0A3#EEBDD71EEEBD071F
(1572904409.033741) can0 0C0#0000000000000000
(1572904409.037004) can0 0AD#FFFF000000000000
(1572904409.037251) can0 0AC#00000100BC410000
(1572904409.037500) can0 0AB#0000000000000000
(1572904409.037744) can0 0AA#0400090000000000
(1572904409.037984) can0 0A8#2200ABE9FEFF0100
(1572904409.038230) can0 0A7#180000000000F9FF
(1572904409.038474) can0 0A6#02000000FEFF0000
(1572904409.038714) can0 0A5#B50C000000002100
(1572904409.038964) can0 0A4#0000000000000000
(1572904409.039189) can0 0A3#EDBDD71EEEBD071F
(1572904409.043774) can0 0C0#0000000000000000
(1572904409.046004) can0 0AD#FFFF000000000000
(1572904409.046242) can0 0AE#1000B41911051820
(1572904409.046490) can0 0AC#00000000BF410000
(1572904409.046739) can0 0AB#0000000000000000
(1572904409.046983) can0 0AA#0400090000000000
(1572904409.047217) can0 0A9#9700FB00FF016C04
(1572904409.047459) can0 0A8#2200ABE900000000
(1572904409.047705) can0 0A7#180000000000FEFF
(1572904409.047955) can0 0A6#0000000000000000
(1572904409.048193) can0 0A5#B50C000000002300
(1572904409.048442) can0 0A4#0000000000000000
(1572904409.048668) can0 0A3#EDBDD71EEEBD071F
(1572904409.048900) can0 0A2#F0D8F0D865050000
(1572904409.049128) can0 0A1#BC0049083908F0D8
(1572904409.049364) can0 0A0#CB00CD00CC00C000
(1572904409.053841) can0 0C0#0000000000000000
(1572904409.055001) can0 0AD#FFFF000000000000
(1572904409.055248) can0 0AC#00000000C2410000
(1572904409.055499) can0 0AB#0000000000000000
(1572904409.055742) can0 0AA#0400090000000000
(1572904409.055984) can0 0A8#2200ABE9FEFFFEFF
(1572904409.056228) can0 0A7#190000000400FCFF
(1572904409.056476) can0 0A6#000002000C000000
(1572904409.056714) can0 0A5#B50C000000002300
(1572904409.056964) can0 0A4#0000000000000000
(1572904409.057192) can0 0A3#EEBDD71EEEBD071F
(1572904409.063885) can0 0C0#0000000000000000
(1572904409.064135) can0 0AD#FFFF000000000000
(1572904409.064381) can0 0AC#00000100C5410000
(1572904409.064631) can0 0AB#0000000000000000
(1572904409.064875) can0 0AA#0400090000000000
(1572904409.065117) can0 0A8#2200ABE9FBFFFDFF
(1572904409.065365) can0 0A7#1A000000FFFFF7FF
(1572904409.065609) can0 0A6#0000050003000000
(1572904409.065848) can0 0A5#B50C000000002400
(1572904409.066098) can0 0A4#0000000000000000
(1572904409.066326) can0 0A3#EEB9D71EEEBD071F
(1572904409.072996) can0 0AD#FFFF000000000000
(1572904409.073242) can0 0AC#0000FFFFC8410000
(1572904409.073492) can0 0AB#0000000000000000
(1572904409.073736) can0 0AA#0400090000000000
(1572904409.073980) can0 0A8#2200ABE90000FDFF
(1572904409.074224) can0 0A7#190000000200F9FF
(1572904409.074468) can0 0A6#FDFF010001000000
(1572904409.074705) can0 0A5#B50C000000002500
(1572904409.074956) can0 0A4#0000000000000000
(1572904409.075183) can0 0A3#EEBDD71EEEBD071F
(1572904409.075432) can0 0C0#0000000000000000
(1572904409.082083) can0 0AD#0000000000000000
(1572904409.082328) can0 0AC#00000000CB410000
(1572904409.082578) can0 0AB#0000000000000000
(1572904409.082822) can0 0AA#0400090000000000
(1572904409.083064) can0 0A8#2200ABE9FBFF0000
(1572904409.083310) can0 0A7#180000000900FCFF
(1572904409.083553) can0 0A6#0200FAFF04000000
(1572904409.083792) can0 0A5#B50C000000002600
(1572904409.084042) can0 0A4#0000000000000000
(1572904409.084270) can0 0A3#EEBDD71EEEBD071F
(1572904409.084519) can0 0C0#0000000000000000
(1572904409.090995) can0 0AD#FFFF000000000000
(1572904409.091243) can0 0AC#00000000CE410000
(1572904409.091360) can0 036#00
(1572904409.091610) can0 0AB#0000000000000000
(1572904409.091838) can0 032#000030011F0100
(1572904409.092082) can0 0AA#0400090000000000
(1572904409.092324) can0 0A8#2200ABE900000000
(1572904409.092572) can0 0A7#16000000FFFFF7FF
(1572904409.092822) can0 0A6#0000000004000000
(1572904409.093059) can0 0A5#B50C000000002700
(1572904409.093309) can0 0A4#0000000000000000
(1572904409.093537) can0 0A3#EEBDD71EEEBD071F
(1572904409.094056) can0 0C0#0000000000000000
(1572904409.099994) can0 0AD#0000000000000000
(1572904409.100241) can0 0AC#00000000D1410000
(1572904409.100491) can0 0AB#0000000000000000
(1572904409.100735) can0 0AA#0400090000000000
(1572904409.100979) can0 0A8#2200ABE905000000
(1572904409.101225) can0 0A7#160000000400F9FF
(1572904409.101469) can0 0A6#FEFFFDFFFFFF0000
(1572904409.101707) can0 0A5#B50C000000002500
(1572904409.101956) can0 0A4#0000000000000000
(1572904409.102184) can0 0A3#EEBDD71EEEBD071F
(1572904409.104111) can0 0C0#0000000000000000
(1572904409.108990) can0 0AD#0000000000000000
(1572904409.109238) can0 0AC#00000000D4410000
(1572904409.109488) can0 0AB#0000000000000000
(1572904409.109732) can0 0AA#0400090000000000
(1572904409.109974) can0 0A8#2200ABE908000000
(1572904409.110222) can0 0A7#190000000000F3FF
(1572904409.110466) can0 0A6#FAFFFDFF00000000
(1572904409.110705) can0 0A5#B50C000000002400
(1572904409.110955) can0 0A4#0000000000000000
(1572904409.111184) can0 0A3#EEBDD71EEEBD071F
(1572904409.114149) can0 0C0#0000000000000000
(1572904409.117988) can0 0AD#0000000000000000
(1572904409.118234) can0 0AC#00000000D7410000
(1572904409.118484) can0 0AB#0000000000000000
(1572904409.118728) can0 0AA#0400090000000000
(1572904409.118968) can0 0A8#2200ABE90200FFFF
(1572904409.119212) can0 0A7#19000000FAFFF7FF
(1572904409.119456) can0 0A6#FDFF000000000000
(1572904409.119698) can0 0A5#B50C000000002800
(1572904409.119948) can0 0A4#0000000000000000
(1572904409.120176) can0 0A3#EEBDD71EEEBD071F
(1572904409.124182) can0 0C0#0000000000000000
(1572904409.126990) can0 0AD#FFFF000000000000
(1572904409.127235) can0 0AC#00000000DA410000
(1572904409.127486) can0 0AB#0000000000000000
(1572904409.127729) can0 0AA#0400090000000000
(1572904409.127974) can0 0A8#2200ABE902000200
(1572904409.128219) can0 0A7#1600000000000000
(1572904409.128461) can0 0A6#0000FDFF03000000
(1572904409.128703) can0 0A5#B50C000000002900
(1572904409.128953) can0 0A4#0000000000000000
(1572904409.129181) can0 0A3#EEBDD71EEEBD071F
(1572904409.134274) can0 0C0#0000000000000000
(1572904409.135988) can0 0AD#FFFF000000000000
(1572904409.136234) can0 0AC#00000000DD410000
(1572904409.136483) can0 0AB#0000000000000000
(1572904409.136727) can0 0AA#0400090000000000
(1572904409.136969) can0 0A8#2200ABE9FBFF0000
(1572904409.137213) can0 0A7#1A000000FFFFF9FF
(1572904409.137457) can0 0A6#02000200FEFF0000
(1572904409.137693) can0 0A5#B50C000000002700
(1572904409.137943) can0 0A4#0000000000000000
(1572904409.138171) can0 0A3#EEBDD71EEEBD071F
(1572904409.144320) can0 0C0#0000000000000000
(1572904409.145076) can0 0AD#FFFF000000000000
(1572904409.145314) can0 0AE#1000B41911051820
(1572904409.145560) can0 0AC#00000100E0410000
(1572904409.145810) can0 0AB#0000000000000000
(1572904409.146054) can0 0AA#0400090000000000
(1572904409.146288) can0 0A9#9700FB00FF016E04
(1572904409.146530) can0 0A8#2200ABE900000200
(1572904409.146774) can0 0A7#19000000FFFFF7FF
(1572904409.147018) can0 0A6#0000FDFFFBFF0000
(1572904409.147259) can0 0A5#B50C000000002900
(1572904409.147509) can0 0A4#0000000000000000
(1572904409.147737) can0 0A3#EEBDD71EEEBD071F
(1572904409.147969) can0 0A2#F0D8F0D865050000
(1572904409.148195) can0 0A1#BD0049083908F0D8
(1572904409.148429) can0 0A0#CB00CD00CD00C000
(1572904409.152710) can0 036#00
(1572904409.153372) can0 032#00002A011F0100
(1572904409.153984) can0 0AD#0000000000000000
(1572904409.154232) can0 0AC#00000000E3410000
(1572904409.154481) can0 0AB#0000000000000000
(1572904409.154725) can0 0AA#0400090000000000
(1572904409.154970) can0 0A8#2200ABE9FBFFFCFF
(1572904409.155213) can0 0A7#160000000000F7FF
(1572904409.155459) can0 0A6#0000050006000000
(1572904409.155699) can0 0A5#B50C000000002600
(1572904409.155949) can0 0A4#0000000000000000
(1572904409.156175) can0 0A3#EDBDD71EEEBD071F
(1572904409.156424) can0 0C0#0000000000000000
(1572904409.162982) can0 0AD#FFFF000000000000
(1572904409.163228) can0 0AC#00000000E6410000
(1572904409.163478) can0 0AB#0000000000000000
(1572904409.163721) can0 0AA#0400090000000000
(1572904409.163963) can0 0A8#2200ABE9FEFFFEFF
(1572904409.164207) can0 0A7#16000000FFFFF9FF
(1572904409.164451) can0 0A6#00000200FEFF0000
(1572904409.164691) can0 0A5#B50C000000002600
(1572904409.164941) can0 0A4#0000000000000000
(1572904409.165167) can0 0A3#EDBDD71EEEBD071F
(1572904409.165416) can0 0C0#0000000000000000
(1572904409.171980) can0 0AD#FFFF000000000000
(1572904409.172226) can0 0AC#00000200E9410000
(1572904409.172476) can0 0AB#0000000000000000
(1572904409.172720) can0 0AA#0400090000000000
(1572904409.172960) can0 0A8#2200ABE9FEFF0500
(1572904409.173204) can0 0A7#18000000FDFFF9FF
(1572904409.173446) can0 0A6#0500FDFFFEFF0000
(1572904409.173686) can0 0A5#B50C000000002600
(1572904409.173936) can0 0A4#0000000000000000
(1572904409.174163) can0 0A3#EEBDD71EEEBD071F
(1572904409.174447) can0 0C0#0000000000000000
(1572904409.180981) can0 0AD#FFFF000000000000
(1572904409.181227) can0 0AC#00000000EC410000
(1572904409.181476) can0 0AB#0000000000000000
(1572904409.181720) can0 0AA#0400090000000000
(1572904409.181964) can0 0A8#2200ABE905000000
(1572904409.182206) can0 0A7#1A0000000200FCFF
(1572904409.182448) can0 0A6#FEFFFDFF04000000
(1572904409.182686) can0 0A5#B50C000000002700
(1572904409.182936) can0 0A4#0000000000000000
(1572904409.183164) can0 0A3#EEBDD71EEEBD071F
(1572904409.184519) can0 0C0#0000000000000000
(1572904409.189978) can0 0AD#FFFF000000000000
(1572904409.190226) can0 0AC#00000000EF410000
(1572904409.190475) can0 0AB#0000000000000000
(1572904409.190719) can0 0AA#0400090000000000
(1572904409.190960) can0 0A8#2200ABE90200FFFF
(1572904409.191203) can0 0A7#18000000F8FFF9FF
(1572904409.191447) can0 0A6#FEFF000001000000
(1572904409.191689) can0 0A5#B50C000000002900
(1572904409.191939) can0 0A4#0000000000000000
(1572904409.192167) can0 0A3#EEBDD71EEEBD071F
(1572904409.194566) can0 0C0#0000000000000000
(1572904409.198976) can0 0AD#FFFF000000000000
(1572904409.199224) can0 0AC#00000000F2410000
(1572904409.199473) can0 0AB#0000000000000000
(1572904409.199717) can0 0AA#0400090000000000
(1572904409.199957) can0 0A8#2200ABE90200FFFF
(1572904409.200205) can0 0A7#190000000000F9FF
(1572904409.200447) can0 0A6#FEFF0000F8FF0000
(1572904409.200687) can0 0A5#B60C000000002500
(1572904409.200936) can0 0A4#0000000000000000
(1572904409.201162) can0 0A3#EEBDE71EEEBD071F
(1572904409.204648) can0 0C0#0000000000000000
(1572904409.208062) can0 0AD#0100000000000000
(1572904409.208310) can0 0AC#00000000F5410000
(1572904409.208561) can0 0AB#0000000000000000
(1572904409.208803) can0 0AA#0400090000000000
(1572904409.209047) can0 0A8#2200ABE905000000
(1572904409.209293) can0 0A7#1A0000000000F9FF
(1572904409.209542) can0 0A6#0000000006000000
(1572904409.209782) can0 0A5#B60C000000002500
(1572904409.210032) can0 0A4#0000000000000000
(1572904409.210261) can0 0A3#EEBDD71EEEBD071F
(1572904409.214692) can0 0C0#0000000000000000
(1572904409.216974) can0 0AD#FFFF000000000000
(1572904409.217222) can0 0AC#00000400F8410000
(1572904409.217472) can0 0AB#0000000000000000
(1572904409.217716) can0 0AA#0400090000000000
(1572904409.217956) can0 0A8#2200ABE902000800
(1572904409.218198) can0 0A7#180000000B00FEFF
(1572904409.218438) can0 0A6#0500F7FF09000000
(1572904409.218684) can0 0A5#B60C000000002400
(1572904409.218933) can0 0A4#0000000000000000
(1572904409.219162) can0 0A3#EEBDD71EEEBD071F
(1572904409.221167) can0 036#00
(1572904409.221827) can0 032#00002D01220100
(1572904409.224762) can0 0C0#0000000000000000
(1572904409.225974) can0 0AD#FFFF000000000000
(1572904409.226218) can0 0AC#0000FEFFFB410000
(1572904409.226467) can0 0AB#0000000000000000
(1572904409.226711) can0 0AA#0400090000000000
(1572904409.226953) can0 0A8#2200ABE90300FBFF
(1572904409.227197) can0 0A7#18000000FFFFFCFF
(1572904409.227437) can0 0A6#FAFF0200FEFF0000
(1572904409.227677) can0 0A5#B60C000000002600
(1572904409.227927) can0 0A4#0000000000000000
(1572904409.228155) can0 0A3#EEBDD71EEEBD071F
(1572904409.234793) can0 0C0#0000000000000000
(1572904409.235041) can0 0AD#0100000000000000
(1572904409.235287) can0 0AC#0000FFFFFE410000
(1572904409.235537) can0 0AB#0000000000000000
(1572904409.235781) can0 0AA#0400090000000000
(1572904409.236022) can0 0A8#2200ABE900000000
(1572904409.236268) can0 0A7#1900000002000100
(1572904409.236516) can0 0A6#0000000002000000
(1572904409.236758) can0 0A5#B60C000000002900
(1572904409.237008) can0 0A4#0000000000000000
(1572904409.237236) can0 0A3#EEBDD71EEEBD071F
(1572904409.243970) can0 0AD#0000000000000000
(1572904409.244208) can0 0AE#1000B41911051820
(1572904409.244455) can0 0AC#0000000001420000
(1572904409.244705) can0 0AB#0000000000000000
(1572904409.244949) can0 0AA#0400090000000000
(1572904409.245183) can0 0A9#9700FB00FF016704
(1572904409.245427) can0 0A8#2200ABE90000FDFF
(1572904409.245669) can0 0A7#1A0000000200FCFF
(1572904409.245911) can0 0A6#FDFF0200FBFF0000
(1572904409.246151) can0 0A5#B60C000000002A00
(1572904409.246401) can0 0A4#0000000000000000
(1572904409.246628) can0 0A3#EEBDD71EEFBD071F
(1572904409.246860) can0 0A2#F0D8F0D865050000
(1572904409.247088) can0 0A1#BC0049083908F0D8
(1572904409.247322) can0 0A0#CB00CD00CD00C000
(1572904409.247572) can0 0C0#0000000000000000
(1572904409.252970) can0 0AD#FFFF000000000000
(1572904409.253217) can0 0AC#0000000004420000
(1572904409.253467) can0 0AB#0000000000000000
(1572904409.253711) can0 0AA#0400090000000000
(1572904409.253953) can0 0A8#2200ABE9FEFFFEFF
(1572904409.254199) can0 0A7#18000000FFFFF7FF
(1572904409.254447) can0 0A6#0000020000000000
(1572904409.254688) can0 0A5#B60C000000002800
(1572904409.254938) can0 0A4#0000000000000000
(1572904409.255166) can0 0A3#EEBDD71EEEBD071F
(1572904409.255415) can0 0C0#0000000000000000
(1572904409.261967) can0 0AD#FFFF000000000000
(1572904409.262214) can0 0AC#0000FFFF07420000
(1572904409.262464) can0 0AB#0000000000000000
(1572904409.262707) can0 0AA#0400090000000000
(1572904409.262947) can0 0A8#2200ABE9FEFFFBFF
(1572904409.263189) can0 0A7#1B000000FAFFF9FF
(1572904409.263429) can0 0A6#FEFF0500FEFF0000
(1572904409.263669) can0 0A5#B60C000000002A00
(1572904409.263919) can0 0A4#0000000000000000
(1572904409.264146) can0 0A3#EEBDD71EEEBD071F
(1572904409.264952) can0 0C0#0000000000000000
(1572904409.271052) can0 0AD#0000000000000000
(1572904409.271300) can0 0AC#000001000A420000
(1572904409.271550) can0 0AB#0000000000000000
(1572904409.271794) can0 0AA#0400090000000000
(1572904409.272034) can0 0A8#2200ABE902000100
(1572904409.272277) can0 0A7#1B00000009000000
(1572904409.272517) can0 0A6#F8FF0500F3FF0000
(1572904409.272761) can0 0A5#B60C000000002C00
(1572904409.273011) can0 0A4#0000000000000000
(1572904409.273239) can0 0A3#EEBDD71EEEBD071F
(1572904409.274992) can0 0C0#0000000000000000
(1572904409.279965) can0 0AD#FFFF000000000000
(1572904409.280210) can0 0AC#000000000D420000
(1572904409.280460) can0 0AB#0000000000000000
(1572904409.280704) can0 0AA#0400090000000000
(1572904409.280943) can0 0A8#2200ABE902000100
(1572904409.281188) can0 0A7#1A000000FDFFFEFF
(1572904409.281433) can0 0A6#0000FDFFFEFF0000
(1572904409.281678) can0 0A5#B60C000000002C00
(1572904409.281927) can0 0A4#0000000000000000
(1572904409.282153) can0 0A3#EEBDE71EEEBD071F
(1572904409.282735) can0 036#00
(1572904409.283395) can0 032#000030011F0100
(1572904409.285050) can0 0C0#0000000000000000
(1572904409.288962) can0 0AD#0000000000000000
(1572904409.289208) can0 0AC#0000000010420000
(1572904409.289458) can0 0AB#0000000000000000
(1572904409.289702) can0 0AA#0400090000000000
(1572904409.289946) can0 0A8#2200ABE9FDFF0400
(1572904409.290187) can0 0A7#190000000600F7FF
(1572904409.290429) can0 0A6#0500FDFFFEFF0000
(1572904409.290669) can0 0A5#B60C000000002B00
(1572904409.290919) can0 0A4#0000000000000000
(1572904409.291147) can0 0A3#EEBDD71EEEBD071F
(1572904409.295085) can0 0C0#0000000000000000
(1572904409.297961) can0 0AD#0000000000000000
(1572904409.298205) can0 0AC#0000000013420000
(1572904409.298455) can0 0AB#0000000000000000
(1572904409.298699) can0 0AA#0400090000000000
(1572904409.298941) can0 0A8#2200ABE900000000
(1572904409.299186) can0 0A7#180000000000F9FF
(1572904409.299436) can0 0A6#0000000000000000
(1572904409.299678) can0 0A5#B50C000000002900
(1572904409.299929) can0 0A4#0000000000000000
(1572904409.300156) can0 0A3#EEBDD71EEEBD071F
(1572904409.305161) can0 0C0#0000000000000000
(1572904409.306960) can0 0AD#FFFF000000000000
(1572904409.307203) can0 0AC#0000010016420000
(1572904409.307453) can0 0AB#0000000000000000
(1572904409.307697) can0 0AA#0400090000000000
(1572904409.307937) can0 0A8#2200ABE900000300
(1572904409.308183) can0 0A7#18000000FFFF0000
(1572904409.308425) can0 0A6#0200FDFF03000000
(1572904409.308667) can0 0A5#B50C000000002900
(1572904409.308917) can0 0A4#0000000000000000
(1572904409.309144) can0 0A3#EEBDD71EEEBD071F
(1572904409.315191) can0 0C0#0000000000000000
(1572904409.315958) can0 0AD#0000000000000000
(1572904409.316202) can0 0AC#0000000019420000
(1572904409.316452) can0 0AB#0000000000000000
(1572904409.316696) can0 0AA#0400090000000000
(1572904409.316938) can0 0A8#2200ABE9FEFFFEFF
(1572904409.317180) can0 0A7#1D000000FAFFF3FF
(1572904409.317426) can0 0A6#00000200FBFF0000
(1572904409.317668) can0 0A5#B50C000000002800
(1572904409.317918) can0 0A4#0000000000000000
(1572904409.318146) can0 0A3#EEBDD71EEEBD071F
(1572904409.324961) can0 0AD#FFFF000000000000
(1572904409.325206) can0 0AC#000000001C420000
(1572904409.325456) can0 0AB#0000000000000000
(1572904409.325700) can0 0AA#0400090000000000
(1572904409.325941) can0 0A8#2200ABE900000000
(1572904409.326183) can0 0A7#1D000000FDFFF7FF
(1572904409.326425) can0 0A6#FEFFFDFF00000000
(1572904409.326665) can0 0A5#B60C000000002600
(1572904409.326915) can0 0A4#0000000000000000
(1572904409.327143) can0 0A3#EEBDD71EEEBD071F
(1572904409.327392) can0 0C0#0000000000000000
(1572904409.334048) can0 0AD#FFFF000000000000
(1572904409.334292) can0 0AC#0000FFFF1F420000
(1572904409.334542) can0 0AB#0000000000000000
(1572904409.334786) can0 0AA#0400090000000000
(1572904409.335024) can0 0A8#2200ABE90500FEFF
(1572904409.335268) can0 0A7#18000000FFFFFCFF
(1572904409.335514) can0 0A6#FBFF000003000000
(1572904409.335755) can0 0A5#B60C000000002800
(1572904409.336005) can0 0A4#0000000000000000
(1572904409.336233) can0 0A3#EEBDD71EEEBD071F
(1572904409.336482) can0 0C0#0000000000000000
(1572904409.342962) can0 0AD#FFFF000000000000
(1572904409.343200) can0 0AE#1000B41911051820
(1572904409.343440) can0 0AC#0000FEFF22420000
(1572904409.343690) can0 0AB#0000000000000000
(1572904409.343934) can0 0AA#0400090000000000
(1572904409.344169) can0 0A9#9700FB00FF016E04
(1572904409.344408) can0 0A8#2200ABE9F8FFFBFF
(1572904409.344654) can0 0A7#1800000002000000
(1572904409.344904) can0 0A6#0000000000000000
(1572904409.345144) can0 0A5#B60C000000002600
(1572904409.345393) can0 0A4#0000000000000000
(1572904409.345622) can0 0A3#EEBDD71EEEBD071F
(1572904409.345853) can0 0A2#F0D8F0D865050000
(1572904409.346082) can0 0A1#BC0049083908F0D8
(1572904409.346317) can0 0A0#CB00CE00CC00C000
(1572904409.346567) can0 0C0#0000000000000000
(1572904409.351177) can0 036#00
(1572904409.351839) can0 032#00002D010A0100
(1572904409.352088) can0 0AD#FFFF000000000000
(1572904409.352332) can0 0AC#0000000025420000
(1572904409.352582) can0 0AB#0000000000000000
(1572904409.352826) can0 0AA#0400090000000000
(1572904409.353069) can0 0A8#2200ABE900000000
(1572904409.353314) can0 0A7#18000000FFFFF7FF
(1572904409.353563) can0 0A6#0000000000000000
(1572904409.353801) can0 0A5#B50C000000002300
(1572904409.354051) can0 0A4#0000000000000000
(1572904409.354279) can0 0A3#EEBDD71EEEBD071F
(1572904409.355356) can0 0C0#0000000000000000
(1572904409.360958) can0 0AD#0000000000000000
(1572904409.361202) can0 0AC#0000000028420000
(1572904409.361452) can0 0AB#0000000000000000
(1572904409.361696) can0 0AA#0400090000000000
(1572904409.361936) can0 0A8#2200ABE9FEFF0100
(1572904409.362182) can0 0A7#1500000000000000
(1572904409.362428) can0 0A6#0200000000000000
(1572904409.362670) can0 0A5#B50C000000002200
(1572904409.362919) can0 0A4#0000000000000000
(1572904409.363147) can0 0A3#EEBDD71EEEBD071F
(1572904409.365439) can0 0C0#0000000000000000
(1572904409.369961) can0 0AD#FFFF000000000000
(1572904409.370208) can0 0AC#000000002B420000
(1572904409.370458) can0 0AB#0000000000000000
(1572904409.370702) can0 0AA#0400090000000000
(1572904409.370942) can0 0A8#2200ABE90200FFFF
(1572904409.371190) can0 0A7#16000000FFFFF7FF
(1572904409.371432) can0 0A6#FDFF0000FEFF0000
(1572904409.371676) can0 0A5#B60C000000002000
(1572904409.371926) can0 0A4#0000000000000000
(1572904409.372154) can0 0A3#EEBDD71EEFBD071F
(1572904409.375480) can0 0C0#0000000000000000
(1572904409.378958) can0 0AD#0100000000000000
(1572904409.379202) can0 0AC#000000002E420000
(1572904409.379451) can0 0AB#0000000000000000
(1572904409.379695) can0 0AA#0400090000000000
(1572904409.379937) can0 0A8#2200ABE9FBFF0000
(1572904409.380179) can0 0A7#190000000200FCFF
(1572904409.380427) can0 0A6#0200020001000000
(1572904409.380671) can0 0A5#B60C000000001D00
(1572904409.380919) can0 0A4#0000000000000000
(1572904409.381147) can0 0A3#EDBDD71EEFBD071F
(1572904409.385512) can0 0C0#0000000000000000
(1572904409.387958) can0 0AD#0000000000000000
(1572904409.388204) can0 0AC#0000010031420000
(1572904409.388453) can0 0AB#0000000000000000
(1572904409.388697) can0 0AA#0400090000000000
(1572904409.388939) can0 0A8#2200ABE900000200
(1572904409.389187) can0 0A7#18000000FFFFF9FF
(1572904409.389433) can0 0A6#0200FDFFFFFF0000
(1572904409.389675) can0 0A5#B60C000000001C00
(1572904409.389925) can0 0A4#0000000000000000
(1572904409.390153) can0 0A3#EEBDD71EEEBD071F
(1572904409.395604) can0 0C0#0000000000000000
(1572904409.397047) can0 0AD#0000000000000000
(1572904409.397292) can0 0AC#0000000034420000
(1572904409.397542) can0 0AB#0000000000000000
(1572904409.397786) can0 0AA#0400090000000000
(1572904409.398028) can0 0A8#2200ABE900000000
(1572904409.398272) can0 0A7#18000000FDFF0000
(1572904409.398520) can0 0A6#00000000FCFF0000
(1572904409.398763) can0 0A5#B60C000000001A00
(1572904409.399014) can0 0A4#0000000000000000
(1572904409.399241) can0 0A3#EEBDD71EEEBD071F
(1572904409.405650) can0 0C0#0000000000000000
(1572904409.405958) can0 0AD#0100000000000000
(1572904409.406202) can0 0AC#0000000037420000
(1572904409.406452) can0 0AB#0000000000000000
(1572904409.406696) can0 0AA#0400090000000000
(1572904409.406936) can0 0A8#2200ABE902000100
(1572904409.407182) can0 0A7#1A0000000400FCFF
(1572904409.407423) can0 0A6#0000FDFF03000000
(1572904409.407667) can0 0A5#B60C000000001500
(1572904409.407917) can0 0A4#0000000000000000
(1572904409.408145) can0 0A3#EEBDD71EEEBD071F
(1572904409.412757) can0 036#00
(1572904409.413415) can0 032#00002D011C0100
(1572904409.414957) can0 0AD#0100000000000000
(1572904409.415201) can0 0AC#000000003A420000
(1572904409.415451) can0 0AB#0000000000000000
(1572904409.415695) can0 0AA#0400090000000000
(1572904409.415935) can0 0A8#2200ABE90800FFFF
(1572904409.416179) can0 0A7#19000000FFFFF7FF
(1572904409.416421) can0 0A6#FAFFFDFF03000000
(1572904409.416663) can0 0A5#B50C000000001400
(1572904409.416913) can0 0A4#0000000000000000
(1572904409.417141) can0 0A3#EEBDD71EEFBD071F
(1572904409.417390) can0 0C0#0000000000000000
(1572904409.424020) can0 0AD#0000000000000000
(1572904409.424264) can0 0AC#000000003D420000
(1572904409.424514) can0 0AB#0000000000000000
(1572904409.424758) can0 0AA#0400090000000000
(1572904409.425000) can0 0A8#2200ABE9FEFFFEFF
(1572904409.425248) can0 0A7#1A000000FFFFF3FF
(1572904409.425494) can0 0A6#00000200FBFF0000
(1572904409.425732) can0 0A5#B50C000000001500
(1572904409.425982) can0 0A4#0000000000000000
(1572904409.426210) can0 0A3#EEBDD71EEFBD071F
(1572904409.426459) can0 0C0#0000000000000000
(1572904409.433019) can0 0AD#0000000000000000
(1572904409.433267) can0 0AC#0000000040420000
(1572904409.433517) can0 0AB#0000000000000000
(1572904409.433761) can0 0AA#0400090000000000
(1572904409.434001) can0 0A8#2200ABE90200FFFF
(1572904409.434245) can0 0A7#1A0000000000FCFF
(1572904409.434488) can0 0A6#FDFF0000FBFF0000
(1572904409.434728) can0 0A5#B50C000000001600
(1572904409.434978) can0 0A4#0000000000000000
(1572904409.435206) can0 0A3#EEBDD71EEEBD071F
(1572904409.435987) can0 0C0#0000000000000000
(1572904409.442019) can0 0AD#0000000000000000
(1572904409.442257) can0 0AE#1000B41911051820
(1572904409.442501) can0 0AC#0000000043420000
(1572904409.442751) can0 0AB#0000000000000000
(1572904409.442995) can0 0AA#0400090000000000
(1572904409.443229) can0 0A9#9700FB00FF016C04
(1572904409.443473) can0 0A8#2200ABE905000000
(1572904409.443716) can0 0A7#180000000000FCFF
(1572904409.443960) can0 0A6#FDFFFDFF04000000
(1572904409.444200) can0 0A5#B50C000000001800
(1572904409.444450) can0 0A4#0000000000000000
(1572904409.444678) can0 0A3#EEBDD71EEEBD071F
(1572904409.444910) can0 0A2#F0D8F0D865050000
(1572904409.445140) can0 0A1#BF0049083908F0D8
(1572904409.445375) can0 0A0#CB00CD00CE00C000
(1572904409.445924) can0 0C0#0000000000000000
(1572904409.451020) can0 0AD#FFFF000000000000
(1572904409.451264) can0 0AC#0000000046420000
(1572904409.451514) can0 0AB#0000000000000000
(1572904409.451758) can0 0AA#0400090000000000
(1572904409.451998) can0 0A8#2200ABE9FEFF0100
(1572904409.452240) can0 0A7#160000000200F7FF
(1572904409.452484) can0 0A6#02000000FEFF0000
(1572904409.452726) can0 0A5#B50C000000001C00
(1572904409.452976) can0 0A4#0000000000000000
(1572904409.453204) can0 0A3#EEBDD71EEEBD071F
(1572904409.455893) can0 0C0#0000000000000000
(1572904409.460109) can0 0AD#FFFF000000000000
(1572904409.460351) can0 0AC#0000FFFF49420000
(1572904409.460601) can0 0AB#0000000000000000
(1572904409.460845) can0 0AA#0400090000000000
(1572904409.461085) can0 0A8#2200ABE9F8FFFEFF
(1572904409.461327) can0 0A7#1A0000000200F7FF
(1572904409.461566) can0 0A6#0200050009000000
(1572904409.461804) can0 0A5#B50C000000001B00
(1572904409.462054) can0 0A4#0000000000000000
(1572904409.462282) can0 0A3#EEBDD71EEFBD071F
(1572904409.465987) can0 0C0#0000000000000000
(1572904409.469017) can0 0AD#FFFF000000000000
(1572904409.469261) can0 0AC#000002004C420000
(1572904409.469511) can0 0AB#0000000000000000
(1572904409.469755) can0 0AA#0400090000000000
(1572904409.469997) can0 0A8#2200ABE9FEFF0400
(1572904409.470244) can0 0A7#1B0000000000F5FF
(1572904409.470489) can0 0A6#0500FDFF06000000
(1572904409.470728) can0 0A5#B50C000000002100
(1572904409.470978) can0 0A4#0000000000000000
(1572904409.471206) can0 0A3#EEBDD71EEFBD071F
(1572904409.476034) can0 0C0#0000000000000000
(1572904409.478016) can0 0AD#FFFF000000000000
(1572904409.478260) can0 0AC#000001004F420000
(1572904409.478509) can0 0AB#0000000000000000
(1572904409.478753) can0 0AA#0400090000000000
(1572904409.478993) can0 0A8#2200ABE902000100
(1572904409.479235) can0 0A7#190000000200F7FF
(1572904409.479483) can0 0A6#0000FDFFFFFF0000
(1572904409.479723) can0 0A5#B50C000000002100
(1572904409.479972) can0 0A4#0000000000000000
(1572904409.480200) can0 0A3#EEBDD71EEEBD071F
(1572904409.481245) can0 036#00
(1572904409.481907) can0 032#000045011F0100
(1572904409.486100) can0 0C0#0000000000000000
(1572904409.487016) can0 0AD#FFFF000000000000
(1572904409.487258) can0 0AC#0000010052420000
(1572904409.487508) can0 0AB#0000000000000000
(1572904409.487752) can0 0AA#0400090000000000
(1572904409.487990) can0 0A8#2200ABE905000300
(1572904409.488238) can0 0A7#190000000000F9FF
(1572904409.488484) can0 0A6#0000FAFFFFFF0000
(1572904409.488723) can0 0A5#B50C000000002600
(1572904409.488973) can0 0A4#0000000000000000
(1572904409.489201) can0 0A3#EEBDD71EEEBD071F
(1572904409.496015) can0 0AD#FFFF000000000000
(1572904409.496261) can0 0AC#0000000055420000
(1572904409.496511) can0 0AB#0000000000000000
(1572904409.496755) can0 0AA#0400090000000000
(1572904409.496995) can0 0A8#2200ABE90600FEFF
(1572904409.497239) can0 0A7#160000000000F9FF
(1572904409.497482) can0 0A6#FAFF000003000000
(1572904409.497722) can0 0A5#B50C000000002400
(1572904409.497972) can0 0A4#0000000000000000
(1572904409.498200) can0 0A3#EEBDD71EEEBD071F
(1572904409.498449) can0 0C0#0000000000000000
(1572904409.505011) can0 0AD#FFFF000000000000
(1572904409.505255) can0 0AC#0000000058420000
(1572904409.505505) can0 0AB#0000000000000000
(1572904409.505749) can0 0AA#0400090000000000
(1572904409.505991) can0 0A8#2200ABE9FBFF0000
(1572904409.506239) can0 0A7#1900000000000000
(1572904409.506485) can0 0A6#0200020009000000
(1572904409.506727) can0 0A5#B50C000000002200
(1572904409.506979) can0 0A4#0000000000000000
(1572904409.507204) can0 0A3#EEBDD71EEEBD071F
(1572904409.507454) can0 0C0#0000000000000000
(1572904409.514012) can0 0AD#FFFF000000000000
(1572904409.514256) can0 0AC#0000FFFF5B420000
(1572904409.514506) can0 0AB#0000000000000000
(1572904409.514750) can0 0AA#0400090000000000
(1572904409.514988) can0 0A8#2200ABE90900FFFF
(1572904409.515232) can0 0A7#180000000000FCFF
(1572904409.515475) can0 0A6#FAFFFDFFFEFF0000
(1572904409.515717) can0 0A5#B50C000000002200
(1572904409.515967) can0 0A4#0000000000000000
(1572904409.516193) can0 0A3#EEBDE71EEEBD071F
(1572904409.516442) can0 0C0#0000000000000000
(1572904409.517456) can0 067#200000004D95CB0B
(1572904409.523097) can0 0AD#FFFF000000000000
(1572904409.523340) can0 0AC#000002005E420000
(1572904409.523590) can0 0AB#0000000000000000
(1572904409.523834) can0 0AA#0400090000000000
(1572904409.524076) can0 0A8#2200ABE9FEFF0400
(1572904409.524318) can0 0A7#19000000FFFFF9FF
(1572904409.524563) can0 0A6#0000000003000000
(1572904409.524805) can0 0A5#B50C000000002000
(1572904409.525055) can0 0A4#0000000000000000
(1572904409.525281) can0 0A3#EEBDE71EEEBD071F
(1572904409.526298) can0 0C0#0000000000000000
(1572904409.532008) can0 0AD#FFFF000000000000
(1572904409.532250) can0 0AC#0000FFFF61420000
(1572904409.532500) can0 0AB#0000000000000000
(1572904409.532744) can0 0AA#0400090000000000
(1572904409.532984) can0 0A8#2200ABE9FEFF0000
(1572904409.533232) can0 0A7#1900000000000000
(1572904409.533478) can0 0A6#0200000000000000
(1572904409.533716) can0 0A5#B50C000000001E00
(1572904409.533965) can0 0A4#0000000000000000
(1572904409.534193) can0 0A3#EEBDD71EEEBD071F
(1572904409.536343) can0 0C0#0000000000000000
(1572904409.541007) can0 0AD#0100000000000000
(1572904409.541245) can0 0AE#1000B41911051820
(1572904409.541488) can0 0AC#0000020064420000
(1572904409.541738) can0 0AB#0000000000000000
(1572904409.541983) can0 0AA#0400090000000000
(1572904409.542216) can0 0A9#9700FB00FF016E04
(1572904409.542456) can0 0A8#2200ABE908000200
(1572904409.542702) can0 0A7#1A0000000200F9FF
(1572904409.542944) can0 0A6#FDFFFAFFFEFF0000
(1572904409.543186) can0 0A5#B50C000000001F00
(1572904409.543303) can0 036#00
(1572904409.543553) can0 0A4#0000000000000000
(1572904409.543781) can0 0A3#EEBDD71EEEBD071F
(1572904409.544005) can0 032#00002D011F0100
(1572904409.544237) can0 0A2#F0D8F0D865050000
(1572904409.544465) can0 0A1#BC0049083908F0D8
(1572904409.544701) can0 0A0#CB00CD00CC00BF00
(1572904409.546386) can0 0C0#0000000000000000
(1572904409.550003) can0 0AD#FFFF000000000000
(1572904409.550249) can0 0AC#0000000067420000
(1572904409.550499) can0 0AB#0000000000000000
(1572904409.550743) can0 0AA#0400090000000000
(1572904409.550985) can0 0A8#2200ABE906000000
(1572904409.551231) can0 0A7#160000000200FEFF
(1572904409.551476) can0 0A6#FDFFFDFFFEFF0000
(1572904409.551719) can0 0A5#B50C000000002000
(1572904409.551968) can0 0A4#0000000000000000
(1572904409.552196) can0 0A3#EEBDD71EEEBD071F
(1572904409.556475) can0 0C0#0000000000000000
(1572904409.559003) can0 0AD#FFFF000000000000
(1572904409.559249) can0 0AC#000000006A420000
(1572904409.559499) can0 0AB#0000000000000000
(1572904409.559743) can0 0AA#0400090000000000
(1572904409.559985) can0 0A8#2200ABE900000000
(1572904409.560229) can0 0A7#1D000000FFFFF7FF
(1572904409.560482) can0 0A6#00000000FBFF0000
(1572904409.560719) can0 0A5#B50C000000001D00
(1572904409.560969) can0 0A4#0000000000000000
(1572904409.561197) can0 0A3#EEBDD71EEFBD071F
(1572904409.566511) can0 0C0#0000000000000000
(1572904409.568004) can0 0AD#FFFF000000000000
(1572904409.568250) can0 0AC#000000006D420000
(1572904409.568500) can0 0AB#0000000000000000
(1572904409.568744) can0 0AA#0400090000000000
(1572904409.568986) can0 0A8#2200ABE9FEFFFEFF
(1572904409.569232) can0 0A7#190000000000F7FF
(1572904409.569476) can0 0A6#00000200FEFF0000
(1572904409.569714) can0 0A5#B50C000000001D00
(1572904409.569963) can0 0A4#0000000000000000
(1572904409.570191) can0 0A3#EEBDD71EEFBD071F
(1572904409.576566) can0 0C0#0000000000000000
(1572904409.576998) can0 0AD#0100000000000000
(1572904409.577244) can0 0AC#0000000070420000
(1572904409.577494) can0 0AB#0000000000000000
(1572904409.577738) can0 0AA#0400090000000000
(1572904409.577976) can0 0A8#2200ABE90900FFFF
(1572904409.578218) can0 0A7#1A0000000200F7FF
(1572904409.578460) can0 0A6#FAFFFDFFFBFF0000
(1572904409.578697) can0 0A5#B50C000000001B00
(1572904409.578947) can0 0A4#0000000000000000
(1572904409.579175) can0 0A3#EEBDD71EEFBD071F
(1572904409.586085) can0 0AD#0000000000000000
(1572904409.586329) can0 0AC#0000000073420000
(1572904409.586579) can0 0AB#0000000000000000
(1572904409.586823) can0 0AA#0400090000000000
(1572904409.587065) can0 0A8#2200ABE900000000
(1572904409.587306) can0 0A7#1B000000FFFF0300
(1572904409.587552) can0 0A6#00000000FEFF0000
(1572904409.587790) can0 0A5#B50C000000001E00
(1572904409.588040) can0 0A4#0000000000000000
(1572904409.588268) can0 0A3#EEBDD71EEFBD071F
(1572904409.588517) can0 0C0#0000000000000000
(1572904409.594997) can0 0AD#0000000000000000
(1572904409.595241) can0 0AC#0000000076420000
(1572904409.595492) can0 0AB#0000000000000000
(1572904409.595735) can0 0AA#0400090000000000
(1572904409.595977) can0 0A8#2200ABE9FEFFFEFF
(1572904409.596220) can0 0A7#16000000FDFFF9FF
(1572904409.596465) can0 0A6#00000200FBFF0000
(1572904409.596705) can0 0A5#B50C000000002100
(1572904409.596955) can0 0A4#0000000000000000
(1572904409.597184) can0 0A3#EEBDD71EEEBD071F
(1572904409.597432) can0 0C0#0000000000000000
(1572904409.603996) can0 0AD#FFFF000000000000
(1572904409.604242) can0 0AC#0000000079420000
(1572904409.604492) can0 0AB#0000000000000000
(1572904409.604736) can0 0AA#0400090000000000
(1572904409.604976) can0 0A8#2200ABE90300FFFF
(1572904409.605222) can0 0A7#190000000000FEFF
(1572904409.605463) can0 0A6#FDFF0000FEFF0000
(1572904409.605705) can0 0A5#B50C000000001F00
(1572904409.605955) can0 0A4#0000000000000000
(1572904409.606185) can0 0A3#EEBDD71EEEBD071F
(1572904409.606954) can0 0C0#0000000000000000
(1572904409.611325) can0 036#00
(1572904409.611989) can0 032#00002D011F0100
(1572904409.612995) can0 0AD#FFFF000000000000
(1572904409.613239) can0 0AC#0000FFFF7C420000
(1572904409.613489) can0 0AB#0000000000000000
(1572904409.613733) can0 0AA#0400090000000000
(1572904409.613973) can0 0A8#2200ABE90600FEFF
(1572904409.614215) can0 0A7#15000000FAFFF7FF
(1572904409.614465) can0 0A6#FAFF000000000000
(1572904409.614703) can0 0A5#B50C000000002300
(1572904409.614953) can0 0A4#0000000000000000
(1572904409.615178) can0 0A3#EDBDD71EEEBD071F
(1572904409.616763) can0 0C0#0000000000000000
(1572904409.621993) can0 0AD#FFFF000000000000
(1572904409.622239) can0 0AC#000002007F420000
(1572904409.622489) can0 0AB#0000000000000000
(1572904409.622733) can0 0AA#0400090000000000
(1572904409.622973) can0 0A8#2200ABE902000500
(1572904409.623217) can0 0A7#18000000FDFFFEFF
(1572904409.623461) can0 0A6#0200FAFF06000000
(1572904409.623703) can0 0A5#B50C000000002000
(1572904409.623953) can0 0A4#0000000000000000
(1572904409.624179) can0 0A3#EDBDD71EEEBD071F
(1572904409.626857) can0 0C0#0000000000000000
(1572904409.630993) can0 0AD#FFFF000000000000
(1572904409.631239) can0 0AC#0000000082420000
(1572904409.631489) can0 0AB#0000000000000000
(1572904409.631733) can0 0AA#0400090000000000
(1572904409.631973) can0 0A8#2200ABE90600FEFF
(1572904409.632214) can0 0A7#19000000FFFFFCFF
(1572904409.632458) can0 0A6#FAFF0000FBFF0000
(1572904409.632698) can0 0A5#B50C000000002600
(1572904409.632948) can0 0A4#0000000000000000
(1572904409.633176) can0 0A3#EEBDD71EEEBD071F
(1572904409.636903) can0 0C0#0000000000000000
(1572904409.639993) can0 0AD#FFFF000000000000
(1572904409.640231) can0 0AE#1000B41911051820
(1572904409.640475) can0 0AC#0000000085420000
(1572904409.640725) can0 0AB#0000000000000000
(1572904409.640969) can0 0AA#0400090000000000
(1572904409.641203) can0 0A9#9700FB00FF016F04
(1572904409.641443) can0 0A8#2200ABE9FEFF0100
(1572904409.641688) can0 0A7#18000000FDFFFCFF
(1572904409.641934) can0 0A6#0200FFFF00000000
(1572904409.642176) can0 0A5#B50C000000002800
(1572904409.642426) can0 0A4#0000000000000000
(1572904409.642652) can0 0A3#EEBDE71EEEBD071F
(1572904409.642884) can0 0A2#F0D8F0D865050000
(1572904409.643111) can0 0A1#BC0049083908F0D8
(1572904409.643348) can0 0A0#CA00CD00CD00C000
(1572904409.646951) can0 0C0#0000000000000000
(1572904409.649079) can0 0AD#FFFF000000000000
(1572904409.649321) can0 0AC#0000FFFF88420000
(1572904409.649571) can0 0AB#0000000000000000
(1572904409.649814) can0 0AA#0400090000000000
(1572904409.650052) can0 0A8#2200ABE90700FEFF
(1572904409.650294) can0 0A7#19000000FDFFF9FF
(1572904409.650540) can0 0A6#0500020000000000
(1572904409.650778) can0 0A5#B50C000000002A00
(1572904409.651028) can0 0A4#0000000000000000
(1572904409.651254) can0 0A3#EEBDE71EEEBD071F
(1572904409.657005) can0 0C0#0000000000000000
(1572904409.657988) can0 0AD#FFFF000000000000
(1572904409.658234) can0 0AC#000000008B420000
(1572904409.658484) can0 0AB#0000000000000000
(1572904409.658728) can0 0AA#0400090000000000
(1572904409.658970) can0 0A8#2200ABE900000000
(1572904409.659218) can0 0A7#16000000FFFFF7FF
(1572904409.659468) can0 0A6#0000000000000000
(1572904409.659706) can0 0A5#B50C000000002700
(1572904409.659956) can0 0A4#0000000000000000
(1572904409.660183) can0 0A3#EEBDD71EEEBD071F
(1572904409.666985) can0 0AD#FFFF000000000000
(1572904409.667229) can0 0AC#000000008E420000
(1572904409.667479) can0 0AB#0000000000000000
(1572904409.667723) can0 0AA#0400090000000000
(1572904409.667963) can0 0A8#2200ABE9FEFF0100
(1572904409.668207) can0 0A7#180000000000FCFF
(1572904409.668453) can0 0A6#0200000000000000
(1572904409.668695) can0 0A5#B50C000000002D00
(1572904409.668944) can0 0A4#0000000000000000
(1572904409.669172) can0 0A3#EEBDD71EEEBD071F
(1572904409.669422) can0 0C0#0000000000000000
(1572904409.672911) can0 036#00
(1572904409.673583) can0 032#00003001220100
(1572904409.675989) can0 0AD#FFFF000000000000
(1572904409.676229) can0 0AC#0000FFFF91420000
(1572904409.676478) can0 0AB#0000000000000000
(1572904409.676722) can0 0AA#0400090000000000
(1572904409.676964) can0 0A8#2200ABE900000000
(1572904409.677210) can0 0A7#1800000002000000
(1572904409.677460) can0 0A6#0000000000000000
(1572904409.677700) can0 0A5#B50C000000002C00
(1572904409.677950) can0 0A4#0000000000000000
(1572904409.678178) can0 0A3#EEBDD71EEEBD071F
(1572904409.678427) can0 0C0#0000000000000000
(1572904409.684983) can0 0AD#0000000000000000
(1572904409.685227) can0 0AC#0000000094420000
(1572904409.685477) can0 0AB#0000000000000000
(1572904409.685721) can0 0AA#0400090000000000
(1572904409.685961) can0 0A8#2200ABE903000100
(1572904409.686207) can0 0A7#180000000000F9FF
(1572904409.686453) can0 0A6#0000FDFFFEFF0000
(1572904409.686691) can0 0A5#B50C000000002A00
(1572904409.686940) can0 0A4#0000000000000000
(1572904409.687169) can0 0A3#EEBDD71EEEBD071F
(1572904409.687430) can0 0C0#0000000000000000
(1572904409.693981) can0 0AD#FFFF000000000000
(1572904409.694225) can0 0AC#0000000097420000
(1572904409.694475) can0 0AB#0000000000000000
(1572904409.694719) can0 0AA#0400090000000000
(1572904409.694961) can0 0A8#2200ABE900000000
(1572904409.695203) can0 0A7#19000000FDFFF9FF
(1572904409.695453) can0 0A6#0000000000000000
(1572904409.695691) can0 0A5#B50C000000002A00
(1572904409.695940) can0 0A4#0000000000000000
(1572904409.696168) can0 0A3#EEBDD71EEEBD071F
(1572904409.697257) can0 0C0#0000000000000000
(1572904409.702981) can0 0AD#FFFF000000000000
(1572904409.703225) can0 0AC#0000FFFF9A420000
(1572904409.703475) can0 0AB#0000000000000000
(1572904409.703719) can0 0AA#0400090000000000
(1572904409.703959) can0 0A8#2200ABE903000100
(1572904409.704205) can0 0A7#180000000000F7FF
(1572904409.704450) can0 0A6#0000FDFFFEFF0000
(1572904409.704692) can0 0A5#B50C000000002E00
(1572904409.704942) can0 0A4#0000000000000000
(1572904409.705170) can0 0A3#EEBDD71EEEBD071F
(1572904409.707291) can0 0C0#0000000000000000
(1572904409.712070) can0 0AD#FFFF000000000000
(1572904409.712314) can0 0AC#000000009D420000
(1572904409.712564) can0 0AB#0000000000000000
(1572904409.712808) can0 0AA#0400090000000000
(1572904409.713047) can0 0A8#2200ABE90300FFFF
(1572904409.713291) can0 0A7#19000000FAFFFEFF
(1572904409.713533) can0 0A6#FDFF000000000000
(1572904409.713773) can0 0A5#B50C000000002C00
(1572904409.714023) can0 0A4#0000000000000000
(1572904409.714251) can0 0A3#EEBDD71EEEBD071F
(1572904409.717330) can0 0C0#0000000000000000
(1572904409.720976) can0 0AD#0000000000000000
(1572904409.721218) can0 0AC#0000FEFFA0420000
(1572904409.721467) can0 0AB#0000000000000000
(1572904409.721712) can0 0AA#0400090000000000
(1572904409.721953) can0 0A8#2200ABE90300FBFF
(1572904409.722199) can0 0A7#1B0000000000FCFF
(1572904409.722443) can0 0A6#FAFF020000000000
(1572904409.722681) can0 0A5#B50C000000002F00
(1572904409.722931) can0 0A4#0000000000000000
(1572904409.723157) can0 0A3#EEBDE71EEEBD071F
(1572904409.727360) can0 0C0#0000000000000000
(1572904409.729976) can0 0AD#FFFF000000000000
(1572904409.730224) can0 0AC#00000000A3420000
(1572904409.730474) can0 0AB#0000000000000000
(1572904409.730718) can0 0AA#0400090000000000
(1572904409.730958) can0 0A8#2200ABE90300FFFF
(1572904409.731202) can0 0A7#1B0000000400F5FF
(1572904409.731444) can0 0A6#FDFF0000FEFF0000
(1572904409.731684) can0 0A5#B50C000000003200
(1572904409.731934) can0 0A4#0000000000000000
(1572904409.732159) can0 0A3#EEBDE71EEEBD071F
(1572904409.737400) can0 0C0#0000000000000000
(1572904409.738976) can0 0AD#FFFF000000000000
(1572904409.739214) can0 0AE#1000B41911051820
(1572904409.739458) can0 0AC#0000FFFFA6420000
(1572904409.739708) can0 0AB#0000000000000000
(1572904409.739951) can0 0AA#0400090000000000
(1572904409.740185) can0 0A9#9700FB00FF016F04
(1572904409.740425) can0 0A8#2200ABE90100FDFF
(1572904409.740669) can0 0A7#18000000FDFFF7FF
(1572904409.740909) can0 0A6#FCFF0100FEFF0000
(1572904409.741153) can0 0A5#B50C000000003000
(1572904409.741402) can0 0A4#0000000000000000
(1572904409.741630) can0 0A3#EEBDD71EEEBD071F
(1572904409.741748) can0 036#00
(1572904409.741980) can0 0A2#F0D8F0D865050000
(1572904409.742206) can0 0A1#BD0049083908F0D8
(1572904409.742427) can0 032#00002D011C0100
(1572904409.742662) can0 0A0#CB00CD00CD00C000
(1572904409.747493) can0 0C0#0000000000000000
(1572904409.747973) can0 0AD#0000000000000000
(1572904409.748219) can0 0AC#00000000A9420000
(1572904409.748469) can0 0AB#0000000000000000
(1572904409.748713) can0 0AA#0400090000000000
(1572904409.748953) can0 0A8#2200ABE901000000
(1572904409.749198) can0 0A7#18000000FDFFFCFF
(1572904409.749448) can0 0A6#0000FFFF00000000
(1572904409.749690) can0 0A5#B50C000000002D00
(1572904409.749940) can0 0A4#0000000000000000
(1572904409.750168) can0 0A3#EEBDD71EEEBD071F
(1572904409.756972) can0 0AD#FFFF000000000000
(1572904409.757216) can0 0AC#00000000AC420000
(1572904409.757466) can0 0AB#0000000000000000
(1572904409.757710) can0 0AA#0400090000000000
(1572904409.757950) can0 0A8#2200ABE9FFFFFEFF
(1572904409.758194) can0 0A7#1A000000FFFFF9FF
(1572904409.758442) can0 0A6#0000010000000000
(1572904409.758684) can0 0A5#B50C000000002E00
(1572904409.758933) can0 0A4#0000000000000000
(1572904409.759161) can0 0A3#EEBDD71EEEBD071F
(1572904409.759411) can0 0C0#0000000000000000
(1572904409.765970) can0 0AD#FFFF000000000000
(1572904409.766216) can0 0AC#00000000AF420000
(1572904409.766466) can0 0AB#0000000000000000
(1572904409.766710) can0 0AA#0400090000000000
(1572904409.766950) can0 0A8#2200ABE90300FFFF
(1572904409.767196) can0 0A7#180000000000FEFF
(1572904409.767440) can0 0A6#FDFF000000000000
(1572904409.767680) can0 0A5#B50C000000002B00
(1572904409.767930) can0 0A4#0000000000000000
(1572904409.768157) can0 0A3#EEBDD71EEEBD071F
(1572904409.768407) can0 0C0#0000000000000000
(1572904409.775057) can0 0AD#FFFF000000000000
(1572904409.775297) can0 0AC#0000FEFFB2420000
(1572904409.775547) can0 0AB#0000000000000000
(1572904409.775791) can0 0AA#0400090000000000
(1572904409.776027) can0 0A8#2200ABE90A00FCFF
(1572904409.776268) can0 0A7#190000000200F7FF
(1572904409.776514) can0 0A6#FDFFFDFFFEFF0000
(1572904409.776752) can0 0A5#B50C000000002A00
(1572904409.777002) can0 0A4#0000000000000000
(1572904409.777230) can0 0A3#EEBDD71EEEBD071F
(1572904409.777986) can0 0C0#0000000000000000
(1572904409.783968) can0 0AD#0100000000000000
(1572904409.784210) can0 0AC#0000FFFFB5420000
(1572904409.784460) can0 0AB#0000000000000000
(1572904409.784704) can0 0AA#0400090000000000
(1572904409.784944) can0 0A8#2200ABE903000100
(1572904409.785186) can0 0A7#16000000FDFFF9FF
(1572904409.785432) can0 0A6#0000FDFFFEFF0000
(1572904409.785671) can0 0A5#B50C000000002B00
(1572904409.785921) can0 0A4#0000000000000000
(1572904409.786149) can0 0A3#EEBDD71EEEBD071F
(1572904409.787684) can0 0C0#0000000000000000
(1572904409.792968) can0 0AD#FFFF000000000000
(1572904409.793214) can0 0AC#00000000B8420000
(1572904409.793464) can0 0AB#0000000000000000
(1572904409.793708) can0 0AA#0400090000000000
(1572904409.793948) can0 0A8#2200ABE901000000
(1572904409.794190) can0 0A7#19000000FDFFFCFF
(1572904409.794436) can0 0A6#FFFFFFFF00000000
(1572904409.794678) can0 0A5#B50C000000002900
(1572904409.794928) can0 0A4#0000000000000000
(1572904409.795156) can0 0A3#EEBDD71EEEBD071F
(1572904409.797722) can0 0C0#0000000000000000
(1572904409.801964) can0 0AD#FFFF000000000000
(1572904409.802208) can0 0AC#00000000BB420000
(1572904409.802458) can0 0AB#0000000000000000
(1572904409.802702) can0 0AA#0400090000000000
(1572904409.802942) can0 0A8#2200ABE901000000
(1572904409.803188) can0 0A7#1C0000000000FEFF
(1572904409.803306) can0 036#00
(1572904409.803552) can0 0A6#FFFF000000000000
(1572904409.803792) can0 0A5#B50C000000002B00
(1572904409.804015) can0 032#00002D011F0100
(1572904409.804265) can0 0A4#0000000000000000
(1572904409.804493) can0 0A3#EEBDD71EEFBD071F
(1572904409.807755) can0 0C0#0000000000000000
(1572904409.810963) can0 0AD#FFFF000000000000
(1572904409.811209) can0 0AC#00000000BE420000
(1572904409.811459) can0 0AB#0000000000000000
(1572904409.811703) can0 0AA#0400090000000000
(1572904409.811943) can0 0A8#2200ABE9FEFF0100
(1572904409.812187) can0 0A7#15000000FFFFF7FF
(1572904409.812435) can0 0A6#0100000000000000
(1572904409.812676) can0 0A5#B50C000000002800
(1572904409.812927) can0 0A4#0000000000000000
(1572904409.813154) can0 0A3#EEBDD71EEFBD071F
(1572904409.817798) can0 0C0#0000000000000000
(1572904409.819962) can0 0AD#0000000000000000
(1572904409.820206) can0 0AC#00000100C1420000
(1572904409.820456) can0 0AB#0000000000000000
(1572904409.820700) can0 0AA#0400090000000000
(1572904409.820944) can0 0A8#2200ABE9FFFFFBFF
(1572904409.821186) can0 0A7#190000000B00FCFF
(1572904409.821432) can0 0A6#FCFF050000000000
(1572904409.821674) can0 0A5#B50C000000002900
(1572904409.821924) can0 0A4#0000000000000000
(1572904409.822152) can0 0A3#EEBDD71EEEBD071F
(1572904409.827874) can0 0C0#0000000000000000
(1572904409.828961) can0 0AD#0000000000000000
(1572904409.829204) can0 0AC#00000000C4420000
(1572904409.829454) can0 0AB#0000000000000000
(1572904409.829698) can0 0AA#0400090000000000
(1572904409.829940) can0 0A8#2200ABE904000100
(1572904409.830186) can0 0A7#18000000FFFFFEFF
(1572904409.830430) can0 0A6#FFFFFCFF00000000
(1572904409.830668) can0 0A5#B50C000000002700
(1572904409.830918) can0 0A4#0000000000000000
(1572904409.831146) can0 0A3#EEBDD71EEEBD071F
(1572904409.837921) can0 0C0#0000000000000000
(1572904409.838171) can0 0AD#FFFF000000000000
(1572904409.838409) can0 0AE#1000B41911051820
(1572904409.838653) can0 0AC#00000000C7420000
(1572904409.838903) can0 0AB#0000000000000000
(1572904409.839147) can0 0AA#0400090000000000
(1572904409.839383) can0 0A9#9700FB00FF016D04
(1572904409.839625) can0 0A8#2200ABE907000000
(1572904409.839869) can0 0A7#16000000FFFFFEFF
(1572904409.840112) can0 0A6#FCFFFDFF00000000
(1572904409.840352) can0 0A5#B50C000000002400
(1572904409.840602) can0 0A4#0000000000000000
(1572904409.840830) can0 0A3#EEBDD71EEEBD071F
(1572904409.841062) can0 0A2#F0D8F0D865050000
(1572904409.841290) can0 0A1#BC0049083908F0D8
(1572904409.841526) can0 0A0#CB00CD00CD00BF00
(1572904409.846964) can0 0AD#FFFF000000000000
(1572904409.847209) can0 0AC#00000000CA420000
(1572904409.847459) can0 0AB#0000000000000000
(1572904409.847704) can0 0AA#0400090000000000
(1572904409.847945) can0 0A8#2200ABE90400FEFF
(1572904409.848189) can0 0A7#18000000FFFFFCFF
(1572904409.848433) can0 0A6#FCFF0000FEFF0000
(1572904409.848671) can0 0A5#B50C000000002300
(1572904409.848921) can0 0A4#0000000000000000
(1572904409.849149) can0 0A3#EEBDD71EEEBD071F
(1572904409.849399) can0 0C0#0000000000000000
(1572904409.855960) can0 0AD#FFFF000000000000
(1572904409.856206) can0 0AC#00000000CD420000
(1572904409.856456) can0 0AB#0000000000000000
(1572904409.856700) can0 0AA#0400090000000000
(1572904409.856940) can0 0A8#2200ABE901000000
(1572904409.857184) can0 0A7#1A000000FFFFF9FF
(1572904409.857429) can0 0A6#0100FDFF00000000
(1572904409.857671) can0 0A5#B50C000000002200
(1572904409.857921) can0 0A4#0000000000000000
(1572904409.858145) can0 0A3#EEBDD71EEEBD171F
(1572904409.858396) can0 0C0#0000000000000000
(1572904409.864960) can0 0AD#0000000000000000
(1572904409.865204) can0 0AC#0000FFFFD0420000
(1572904409.865454) can0 0AB#0000000000000000
(1572904409.865700) can0 0AA#0400090000000000
(1572904409.865938) can0 0A8#2200ABE90100FDFF
(1572904409.866180) can0 0A7#19000000FFFFFCFF
(1572904409.866420) can0 0A6#FCFF0200FEFF0000
(1572904409.866659) can0 0A5#B50C000000002600
(1572904409.866910) can0 0A4#0000000000000000
(1572904409.867137) can0 0A3#EEBDD71EEFBD071F
(1572904409.868081) can0 0C0#0000000000000000
(1572904409.871388) can0 036#00
(1572904409.872061) can0 032#00002D011F0100
(1572904409.873962) can0 0AD#FFFF000000000000
(1572904409.874208) can0 0AC#00000000D3420000
(1572904409.874458) can0 0AB#0000000000000000
(1572904409.874702) can0 0AA#0400090000000000
(1572904409.874942) can0 0A8#2200ABE90300FEFF
(1572904409.875186) can0 0A7#1A000000FDFFF9FF
(1572904409.875430) can0 0A6#FCFF000000000000
(1572904409.875669) can0 0A5#B50C000000002400
(1572904409.875919) can0 0A4#0000000000000000
(1572904409.876148) can0 0A3#EEBDD71EEFBD071F
(1572904409.878159) can0 0C0#0000000000000000
(1572904409.882961) can0 0AD#FFFF000000000000
(1572904409.883205) can0 0AC#00000000D6420000
(1572904409.883455) can0 0AB#0000000000000000
(1572904409.883701) can0 0AA#0400090000000000
(1572904409.883937) can0 0A8#2200ABE90A00FFFF
(1572904409.884183) can0 0A7#160000000400F7FF
(1572904409.884427) can0 0A6#FAFFFDFF00000000
(1572904409.884665) can0 0A5#B50C000000002500
(1572904409.884915) can0 0A4#0000000000000000
(1572904409.885143) can0 0A3#EEBDD71EEEBD071F
(1572904409.888210) can0 0C0#0000000000000000
(1572904409.891962) can0 0AD#FFFF000000000000
(1572904409.892203) can0 0AC#0000FFFFD9420000
(1572904409.892453) can0 0AB#0000000000000000
(1572904409.892697) can0 0AA#0400090000000000
(1572904409.892939) can0 0A8#2200ABE9F3FFFEFF
(1572904409.893185) can0 0A7#1C000000FFFFF9FF
(1572904409.893431) can0 0A6#040007000B000000
(1572904409.893671) can0 0A5#B50C000000002400
(1572904409.893921) can0 0A4#0000000000000000
(1572904409.894149) can0 0A3#EEBDD71EEEBD071F
(1572904409.898256) can0 0C0#0000000000000000
(1572904409.901050) can0 0AD#FFFF000000000000
(1572904409.901294) can0 0AC#00000000DC420000
(1572904409.901544) can0 0AB#0000000000000000
(1572904409.901788) can0 0AA#0400090000000000
(1572904409.902032) can0 0A8#2200ABE90400FFFF
(1572904409.902276) can0 0A7#160000000000F9FF
(1572904409.902520) can0 0A6#FCFFFFFFFEFF0000
(1572904409.902759) can0 0A5#B50C000000002100
(1572904409.903009) can0 0A4#0000000000000000
(1572904409.903237) can0 0A3#EEBDD71EEEBD071F
(1572904409.908340) can0 0C0#0000000000000000
(1572904409.909962) can0 0AD#FFFF000000000000
(1572904409.910208) can0 0AC#00000000DF420000
(1572904409.910458) can0 0AB#0000000000000000
(1572904409.910703) can0 0AA#0400090000000000
(1572904409.910942) can0 0A8#2200ABE9FFFFFEFF
(1572904409.911184) can0 0A7#19000000F8FFF9FF
(1572904409.911430) can0 0A6#FFFF010000000000
(1572904409.911669) can0 0A5#B50C000000002100
(1572904409.911919) can0 0A4#0000000000000000
(1572904409.912147) can0 0A3#EEBDD71EEEB9071F
(1572904409.918391) can0 0C0#0000000000000000
(1572904409.918963) can0 0AD#FFFF000000000000
(1572904409.919208) can0 0AC#00000000E2420000
(1572904409.919458) can0 0AB#0000000000000000
(1572904409.919703) can0 0AA#0400090000000000
(1572904409.919942) can0 0A8#2200ABE9FFFFFEFF
(1572904409.920188) can0 0A7#18000000FDFFFCFF
(1572904409.920434) can0 0A6#FFFF010000000000
(1572904409.920676) can0 0A5#B50C000000002200
(1572904409.920926) can0 0A4#0000000000000000
(1572904409.921154) can0 0A3#EEBDD71EEEB9071F
(1572904409.927962) can0 0AD#FFFF000000000000
(1572904409.928205) can0 0AC#00000000E5420000
(1572904409.928455) can0 0AB#0000000000000000
(1572904409.928699) can0 0AA#0400090000000000
(1572904409.928939) can0 0A8#2200ABE901000000
(1572904409.929181) can0 0A7#19000000FFFFF9FF
(1572904409.929427) can0 0A6#FFFFFFFFF8FF0000
(1572904409.929665) can0 0A5#B50C000000002300
(1572904409.929915) can0 0A4#0000000000000000
(1572904409.930143) can0 0A3#EEBDD71EEEBD071F
(1572904409.930392) can0 0C0#0000000000000000
(1572904409.933036) can0 036#00
(1572904409.933708) can0 032#00002D01220100
(1572904409.936964) can0 0AD#FFFF000000000000
(1572904409.937201) can0 0AE#1000B41911051820
(1572904409.937445) can0 0AC#0000FFFFE8420000
(1572904409.937695) can0 0AB#0000000000000000
(1572904409.937939) can0 0AA#0400090000000000
(1572904409.938175) can0 0A9#9700FB00FF017204
(1572904409.938415) can0 0A8#2200ABE90100FDFF
(1572904409.938663) can0 0A7#18000000FFFFF9FF
(1572904409.938904) can0 0A6#FCFF0100FEFF0000
(1572904409.939144) can0 0A5#B50C000000002000
(1572904409.939394) can0 0A4#0000000000000000
(1572904409.939623) can0 0A3#EEBDD71EEEBD071F
(1572904409.939854) can0 0A2#F0D8F0D865050000
(1572904409.940082) can0 0A1#BC0049083908F0D8
(1572904409.940320) can0 0A0#CB00CE00CD00C200
(1572904409.940569) can0 0C0#0000000000000000
(1572904409.945960) can0 0AD#0000000000000000
(1572904409.946201) can0 0AC#0000FFFFEB420000
(1572904409.946451) can0 0AB#0000000000000000
(1572904409.946696) can0 0AA#0400090000000000
(1572904409.946935) can0 0A8#2200ABE9FFFFFEFF
(1572904409.947183) can0 0A7#1A000000FAFFFEFF
(1572904409.947427) can0 0A6#00000200FEFF0000
(1572904409.947669) can0 0A5#B50C000000002000
(1572904409.947919) can0 0A4#0000000000000000
(1572904409.948147) can0 0A3#EEBDD71EEEBD071F
(1572904409.948906) can0 0C0#0000000000000000
(1572904409.955022) can0 0AD#FFFF000000000000
(1572904409.955266) can0 0AC#00000000EE420000
