(1606743317.236100) can0 079#0000000000000000
(1606743317.243914) can0 01C#0000000001000000
(1606743317.244520) can0 002#00007B3B00000000
(1606743317.248752) can0 0C0#0000000001000000
(1606743317.251693) can0 037#0000C35F00000301
(1606743317.338901) can0 079#0000000000000000
(1606743317.343900) can0 002#0000003B00000000
(1606743317.345473) can0 01C#0000000001000000
(1606743317.346755) can0 0AD#8100000000000000
(1606743317.347003) can0 0AC#00007EFF04000000
(1606743317.347253) can0 0AB#0000000000000000
(1606743317.347497) can0 0AA#0000090000008000
(1606743317.347741) can0 0A8#2200ABE9020000FF
(1606743317.347983) can0 0A7#19000D00FAFFF7FF
(1606743317.348225) can0 0A6#75FF8BFF67FF0000
(1606743317.348463) can0 0A5#360213001F0012D0
(1606743317.348713) can0 0A4#0000000000000000
(1606743317.348941) can0 0A3#ED01D01EEEB9F71E
(1606743317.355819) can0 0AD#2200000000000000
(1606743317.356069) can0 0AC#000087FF07000000
(1606743317.356319) can0 0AB#0000000000000000
(1606743317.356563) can0 0AA#0000090000008000
(1606743317.356801) can0 0A8#2200ABE9100012FF
(1606743317.357039) can0 0A7#19000200FDFFF9FF
(1606743317.357275) can0 0A6#80FF92FF78FF0000
(1606743317.357519) can0 0A5#180200000000C3FC
(1606743317.357769) can0 0A4#0000000000000000
(1606743317.357993) can0 0A3#EDB9D71EEEB9F71E
(1606743317.358398) can0 0C0#0000000001000000
(1606743317.361135) can0 037#0000C35E00000301
(1606743317.364815) can0 0AD#0300000000000000
(1606743317.365061) can0 0AC#00008BFF0A000000
(1606743317.365311) can0 0AB#0000000000000000
(1606743317.365553) can0 0AA#0000090000008001
(1606743317.365791) can0 0A8#2200ABE913001AFF
(1606743317.366035) can0 0A7#18000000FDFFF9FF
(1606743317.366277) can0 0A6#84FF95FF83FF0000
(1606743317.366517) can0 0A5#1002FFFFFEFF0127
(1606743317.366767) can0 0A4#0000000000000000
(1606743317.366991) can0 0A3#EDB9D71EEEB9F71E
(1606743317.373819) can0 0AD#0200000000000000
(1606743317.374064) can0 0AC#000093FF0D000000
(1606743317.374314) can0 0AB#0000000000000000
(1606743317.374556) can0 0AA#0000090000008001
(1606743317.374792) can0 0A8#2200ABE90C0034FF
(1606743317.375036) can0 0A7#1E000000FDFFF5FF
(1606743317.375272) can0 0A6#8EFFA6FF7EFF0000
(1606743317.375512) can0 0A5#0E0200000000ED4E
(1606743317.375762) can0 0A4#0000000000000000
(1606743317.375986) can0 0A3#EDB9D71EEEB9F71E
(1606743317.382820) can0 0AD#0100000000000000
(1606743317.383064) can0 0AC#000097FF10000000
(1606743317.383314) can0 0AB#0000000000000000
(1606743317.383556) can0 0AA#0000090000008001
(1606743317.383792) can0 0A8#2200ABE9120032FF
(1606743317.384038) can0 0A7#15000000FFFFF3FF
(1606743317.384280) can0 0A6#91FFA9FF8BFF0000
(1606743317.384522) can0 0A5#0D0200000000A474
(1606743317.384772) can0 0A4#0000000000000000
(1606743317.384996) can0 0A3#EEB9D71EEEB9F71E
(1606743317.391818) can0 0AD#0000000000000000
(1606743317.392060) can0 0AC#00009EFF13000000
(1606743317.392310) can0 0AB#0000000000000000
(1606743317.392552) can0 0AA#0000090000008001
(1606743317.392786) can0 0A8#2200ABE90D004CFF
(1606743317.393032) can0 0A7#18000000FDFFFCFF
(1606743317.393268) can0 0A6#9DFFAEFF94FF0000
(1606743317.393508) can0 0A5#0D02000000004798
(1606743317.393758) can0 0A4#0000000000000000
(1606743317.393982) can0 0A3#EEB9D71EEEB9F71E
(1606743317.400976) can0 0AF#00000D020D029CEE
(1606743317.401222) can0 0AD#2803000000000000
(1606743317.401470) can0 0AC#0000280016000000
(1606743317.401720) can0 0AB#0000000000000040
(1606743317.401962) can0 0AA#0700090000008001
(1606743317.402202) can0 0A8#2200ABE960FF5100
(1606743317.402446) can0 0A7#1A000000FFFFF5FF
(1606743317.402692) can0 0A6#A0FFADFF9FFF0000
(1606743317.402926) can0 0A5#D106AD001F01E8BA
(1606743317.403176) can0 0A4#0000000000000000
(1606743317.403400) can0 0A3#EDB9D71EEEB9F71E
(1606743317.409818) can0 0AF#00019CEE98FFA4FF
(1606743317.410066) can0 0AD#FA02000000000000
(1606743317.410310) can0 0AC#0000230019000000
(1606743317.410560) can0 0AB#0000000000000040
(1606743317.410802) can0 0AA#0700090000008001
(1606743317.411038) can0 0A8#2200ABE95FFF4500
(1606743317.411286) can0 0A7#190000000000F9FF
(1606743317.411524) can0 0A6#A2FFAEFF9FFF0000
(1606743317.411758) can0 0A5#B10610001A00D6DA
(1606743317.412008) can0 0A4#0000000000000000
(1606743317.412235) can0 0A3#EDB9D71EEEBDF71E
(1606743317.418826) can0 0AF#00028EFF19000000
(1606743317.419072) can0 0AD#1400000000000000
(1606743317.419322) can0 0AC#00000D001C000000
(1606743317.419572) can0 0AB#0000000000000040
(1606743317.419814) can0 0AA#0700090000008001
(1606743317.420050) can0 0A8#2200ABE965FF1900
(1606743317.420290) can0 0A7#1B000000FAFFF5FF
(1606743317.420526) can0 0A6#ADFFB6FFAAFF0000
(1606743317.420760) can0 0A5#2906F3FFEAFF4EF9
(1606743317.421010) can0 0A4#0000000000000000
(1606743317.421236) can0 0A3#EDB9D71EEEB9F71E
(1606743317.427822) can0 0AF#0003000001000000
(1606743317.428068) can0 0AD#4000000000000000
(1606743317.428316) can0 0AC#000008001F000000
(1606743317.428566) can0 0AB#0000000000000040
(1606743317.428808) can0 0AA#0700090000008001
(1606743317.429042) can0 0A8#2200ABE96DFF1100
(1606743317.429284) can0 0A7#19000000FAFFF9FF
(1606743317.429522) can0 0A6#B5FFB7FFA9FF0000
(1606743317.429762) can0 0A5#1C0600000000FF15
(1606743317.430012) can0 0A4#0000000000000000
(1606743317.430237) can0 0A3#EEB9D71EEEB9F71E
(1606743317.436828) can0 0AF#0004000000000000
(1606743317.437066) can0 0AE#1000B41911051820
(1606743317.437312) can0 0AD#0700000000000000
(1606743317.437558) can0 0AC#0000080022000000
(1606743317.437808) can0 0AB#0000000000000040
(1606743317.438050) can0 0AA#0700090000008001
(1606743317.438286) can0 0A9#9700FB00FF018B04
(1606743317.438526) can0 0A8#2200ABE97BFF1000
(1606743317.438768) can0 0A7#19000000FFFFFCFF
(1606743317.439006) can0 0A6#BCFFBEFFAEFF0000
(1606743317.439244) can0 0A5#2306020003002A31
(1606743317.439494) can0 0A4#0000000000000000
(1606743317.439745) can0 079#0000000000000000
(1606743317.439969) can0 0A3#EEB9D71EEEB9F71E
(1606743317.440201) can0 0A2#F0D8F0D865050000
(1606743317.440433) can0 0A1#BA001C081208F0D8
(1606743317.440673) can0 0A0#700070007000B700
(1606743317.445109) can0 01C#0000000001000000
(1606743317.445712) can0 002#0000263B00000000
(1606743317.445956) can0 0AF#00058E0400000000
(1606743317.446206) can0 0AD#3C00000000000000
(1606743317.446453) can0 0AC#0000070025000000
(1606743317.446703) can0 0AB#0000000000000040
(1606743317.446944) can0 0AA#0700090000008001
(1606743317.447182) can0 0A8#2200ABE97DFF0D00
(1606743317.447427) can0 0A7#1A000000FFFFF5FF
(1606743317.447666) can0 0A6#BBFFC1FFB9FF0000
(1606743317.447903) can0 0A5#0906FBFFF7FFDA4A
(1606743317.448152) can0 0A4#0000000000000000
(1606743317.448376) can0 0A3#EEB9D71EEEB9F71E
(1606743317.454874) can0 0AF#01000D020D029CEE
(1606743317.455120) can0 0AD#2700000000000000
(1606743317.455370) can0 0AC#0000090028000000
(1606743317.455620) can0 0AB#0000000000000040
(1606743317.455863) can0 0AA#0700090000008001
(1606743317.456096) can0 0A8#2200ABE984FF1100
(1606743317.456340) can0 0A7#19000000FFFFF7FF
(1606743317.456582) can0 0A6#BCFFC7FFB7FF0000
(1606743317.456820) can0 0A5#0F06FCFFF8FF2063
(1606743317.457070) can0 0A4#0000000000000000
(1606743317.457295) can0 0A3#EEB9D71EEEB9F71E
(1606743317.463958) can0 0AF#01019CEE93FF9EFF
(1606743317.464204) can0 0AD#2C00000000000000
(1606743317.464448) can0 0AC#000004002B000000
(1606743317.464698) can0 0AB#0000000000000040
(1606743317.464940) can0 0AA#0700090000008001
(1606743317.465176) can0 0A8#2200ABE988FF0800
(1606743317.465419) can0 0A7#19000000FDFFF9FF
(1606743317.465656) can0 0A6#C2FFC4FFC4FF0000
(1606743317.465896) can0 0A5#0006F8FFF2FF4A7A
(1606743317.466146) can0 0A4#0000000000000000
(1606743317.466371) can0 0A3#EDB9D71EEEB9F71E
(1606743317.466622) can0 0C0#0000000001000000
(1606743317.468651) can0 037#0000C35F00000301
(1606743317.472811) can0 0AF#01028EFF1A000000
(1606743317.473059) can0 0AD#0D00000000000000
(1606743317.473307) can0 0AC#000004002E000000
(1606743317.473557) can0 0AB#0000000000000040
(1606743317.473799) can0 0AA#0700090000008001
(1606743317.474039) can0 0A8#2200ABE993FF0900
(1606743317.474279) can0 0A7#19000000FDFFF9FF
(1606743317.474521) can0 0A6#C6FFCEFFC2FF0000
(1606743317.474755) can0 0A5#F705F8FFF3FFB88F
(1606743317.475005) can0 0A4#0000000000000000
(1606743317.475229) can0 0A3#EDB9D71EEEB9F71E
(1606743317.481819) can0 0AF#0103000001000000
(1606743317.482063) can0 0AD#6B00000000000000
(1606743317.482309) can0 0AC#00000F0031000000
(1606743317.482559) can0 0AB#0000000000000040
(1606743317.482801) can0 0AA#0700090000008001
(1606743317.483037) can0 0A8#2200ABE99BFF1D00
(1606743317.483281) can0 0A7#16000000FAFFF5FF
(1606743317.483521) can0 0A6#C6FFD1FFCBFF0000
(1606743317.483757) can0 0A5#5E0610001A0036A4
(1606743317.484007) can0 0A4#0000000000000000
(1606743317.484231) can0 0A3#EEB9D71EEEB9F71E
(1606743317.490819) can0 0AF#0104000000000000
(1606743317.491065) can0 0AD#8D00000000000000
(1606743317.491311) can0 0AC#00000E0034000000
(1606743317.491561) can0 0AB#0000000000000040
(1606743317.491803) can0 0AA#0700090000008001
(1606743317.492041) can0 0A8#2200ABE9A1FF1D00
(1606743317.492283) can0 0A7#19000000FDFFF9FF
(1606743317.492521) can0 0A6#CAFFD4FFC8FF0000
(1606743317.492759) can0 0A5#6506000000009FB7
(1606743317.493009) can0 0A4#0000000000000000
(1606743317.493233) can0 0A3#EDB9D71EEEB9F71E
(1606743317.499811) can0 0AF#01058E0400000000
(1606743317.500055) can0 0AD#4200000000000000
(1606743317.500301) can0 0AC#0000090037000000
(1606743317.500551) can0 0AB#0000000000000040
(1606743317.500793) can0 0AA#0700090000008001
(1606743317.501031) can0 0A8#2200ABE9AAFF1200
(1606743317.501275) can0 0A7#16000000FFFFFEFF
(1606743317.501515) can0 0A6#CFFFDAFFC2FF0000
(1606743317.501753) can0 0A5#2E0601000200E7C9
(1606743317.502003) can0 0A4#0000000000000000
(1606743317.502227) can0 0A3#EDB9D71EEEB9F71E
(1606743317.508865) can0 0AF#02000D020D029CEE
(1606743317.509115) can0 0AD#2400000000000000
(1606743317.509361) can0 0AC#00000A003A000000
(1606743317.509611) can0 0AB#0000000000000040
(1606743317.509853) can0 0AA#0700090000008001
(1606743317.510089) can0 0A8#2200ABE9AAFF1400
(1606743317.510331) can0 0A7#19000000FDFFFCFF
(1606743317.510573) can0 0A6#CFFFD9FFCFFF0000
(1606743317.510815) can0 0A5#3F06FFFFFEFF30DB
(1606743317.511065) can0 0A4#0000000000000000
(1606743317.511289) can0 0A3#EDB9D71EEEB9F71E
(1606743317.517799) can0 0AF#02019CEE96FF9BFF
(1606743317.518047) can0 0AD#0200000000000000
(1606743317.518295) can0 0AC#000009003D000000
(1606743317.518545) can0 0AB#0000000000000040
(1606743317.518787) can0 0AA#0700090000008001
(1606743317.519027) can0 0A8#2200ABE9AFFF1300
(1606743317.519269) can0 0A7#19000000FAFFF5FF
(1606743317.519509) can0 0A6#D7FFD5FFD5FF0000
(1606743317.519743) can0 0A5#6B060E00170085EB
(1606743317.519993) can0 0A4#0000000000000000
(1606743317.520217) can0 0A3#EDB9D71EEEB9F71E
(1606743317.526953) can0 0AF#02028BFF1B000000
(1606743317.527199) can0 0AD#5C00000000000000
(1606743317.527447) can0 0AC#00000C0040000000
(1606743317.527697) can0 0AB#0000000000000040
(1606743317.527939) can0 0AA#0700090000008001
(1606743317.528175) can0 0A8#2200ABE9B8FF1800
(1606743317.528417) can0 0A7#19000000FDFFF7FF
(1606743317.528657) can0 0A6#D7FFDDFFD7FF0000
(1606743317.528897) can0 0A5#7D060200020019FB
(1606743317.529147) can0 0A4#0000000000000000
(1606743317.529371) can0 0A3#EDB9D71EEEB9F71E
(1606743317.535809) can0 0AF#0203000001000000
(1606743317.536047) can0 0AE#1000B41911051820
(1606743317.536291) can0 0AD#6500000000000000
(1606743317.536535) can0 0AC#00000D0043000000
(1606743317.536785) can0 0AB#0000000000000040
(1606743317.537027) can0 0AA#0700090000008001
(1606743317.537261) can0 0A9#9700FB00FF018E04
(1606743317.537499) can0 0A8#2200ABE9B7FF1900
(1606743317.537741) can0 0A7#19000000F6FFF7FF
(1606743317.537981) can0 0A6#D7FFDDFFD7FF0000
(1606743317.538215) can0 0A5#8906FBFFF7FF8F09
(1606743317.538465) can0 0A4#0000000000000000
(1606743317.538689) can0 0A3#EDB9D71EEEB9F71E
(1606743317.538920) can0 0A2#F0D8F0D865050000
(1606743317.539148) can0 0A1#BA0049083908F0D8
(1606743317.539384) can0 0A0#AF00AF00AF00BA00
(1606743317.542487) can0 079#0000000000000000
(1606743317.544446) can0 002#00002F3B00000000
(1606743317.544806) can0 0AF#0204000000000000
(1606743317.545052) can0 0AD#2800000000000000
(1606743317.545300) can0 0AC#00000E0046000000
(1606743317.545550) can0 0AB#0000000000000040
(1606743317.545792) can0 0AA#0700090000008001
(1606743317.546026) can0 0A8#2200ABE9BDFF1D00
(1606743317.546272) can0 0A7#16000000FAFFFCFF
(1606743317.546512) can0 0A6#D9FFDEFFD6FF0000
(1606743317.546750) can0 0A5#B0060C0013005917
(1606743317.547004) can0 01C#0000000001000000
(1606743317.547253) can0 0A4#0000000000000000
(1606743317.547477) can0 0A3#EDB9D71EEEB9F71E
(1606743317.553797) can0 0AF#02058E0400000000
(1606743317.554046) can0 0AD#7C00000000000000
(1606743317.554293) can0 0AC#0000120049000000
(1606743317.554544) can0 0AB#0000000000000040
(1606743317.554781) can0 0AA#0700090800008001
(1606743317.555017) can0 0A8#2200ABE9C9FF2300
(1606743317.555265) can0 0A7#18000000FFFFF9FF
(1606743317.555506) can0 0A6#DEFFE0FFDCFF0000
(1606743317.555740) can0 0A5#1E07210037006824
(1606743317.555989) can0 0A4#0000000000000000
(1606743317.556215) can0 0A3#EDB9D71EEFB9F71E
(1606743317.562855) can0 0AF#03000D020D029CEE
(1606743317.563101) can0 0AD#2800000000000000
(1606743317.563345) can0 0AC#00000D004C000000
(1606743317.563595) can0 0AB#0000000000000040
(1606743317.563833) can0 0AA#0700090800008001
(1606743317.564069) can0 0A8#2200ABE9C8FF1B00
(1606743317.564313) can0 0A7#190000000400F7FF
(1606743317.564553) can0 0A6#E0FFE2FFE1FF0000
(1606743317.564789) can0 0A5#D60608000D00BB30
(1606743317.565039) can0 0A4#0000000000000000
(1606743317.565264) can0 0A3#EDB9D71EEEB9F71E
(1606743317.571793) can0 0AF#03019CEE93FF9EFF
(1606743317.572040) can0 0AD#3500000000000000
(1606743317.572282) can0 0AC#00000B004F000000
(1606743317.572531) can0 0AB#0000000000000040
(1606743317.572769) can0 0AA#0700090800008001
(1606743317.573005) can0 0A8#2200ABE9C7FF1500
(1606743317.573248) can0 0A7#1B000000FDFFECFF
(1606743317.573491) can0 0A6#DFFFE3FFE0FF0000
(1606743317.573727) can0 0A5#9206F9FFF3FF623C
(1606743317.573977) can0 0A4#0000000000000000
(1606743317.574201) can0 0A3#EEB9D71EEEB9F71E
(1606743317.575175) can0 0C0#0000000001000000
(1606743317.578012) can0 037#0000C35E00000301
(1606743317.580796) can0 0AF#03028BFF1A000000
(1606743317.581045) can0 0AD#2E00000000000000
(1606743317.581288) can0 0AC#00000D0052000000
(1606743317.581538) can0 0AB#0000000000000040
(1606743317.581776) can0 0AA#0700090800008001
(1606743317.582012) can0 0A8#2200ABE9C9FF1A00
(1606743317.582256) can0 0A7#1B000000FDFFF5FF
(1606743317.582494) can0 0A6#DEFFE5FFE2FF0000
(1606743317.582728) can0 0A5#B406FBFFF7FF6247
(1606743317.582978) can0 0A4#0000000000000000
(1606743317.583202) can0 0A3#EEB9D71EEEB9F71E
(1606743317.589946) can0 0AF#0303000001000000
(1606743317.590196) can0 0AD#3900000000000000
(1606743317.590440) can0 0AC#0000090055000000
(1606743317.590690) can0 0AB#0000000000000040
(1606743317.590928) can0 0AA#0700090800008001
(1606743317.591168) can0 0A8#2200ABE9CFFF1100
(1606743317.591412) can0 0A7#18000000FDFFF9FF
(1606743317.591650) can0 0A6#E8FFE4FFE1FF0000
(1606743317.591886) can0 0A5#C206FAFFF5FFE151
(1606743317.592136) can0 0A4#0000000000000000
(1606743317.592360) can0 0A3#EDB9D71EEEB9F71E
(1606743317.598800) can0 0AF#0304000000000000
(1606743317.599048) can0 0AD#1500000000000000
(1606743317.599294) can0 0AC#00000B0058000000
(1606743317.599544) can0 0AB#0000000000000040
(1606743317.599782) can0 0AA#0700090800008001
(1606743317.600018) can0 0A8#2200ABE9D7FF1500
(1606743317.600262) can0 0A7#160000000000F5FF
(1606743317.600500) can0 0A6#E7FFEBFFE2FF0000
(1606743317.600738) can0 0A5#DF0604000600975B
(1606743317.600988) can0 0A4#0000000000000000
(1606743317.601212) can0 0A3#EDB9D71EEEB9F71E
(1606743317.607790) can0 0AF#03058E0400000000
(1606743317.608036) can0 0AD#0400000000000000
(1606743317.608280) can0 0AC#00000B005B000000
(1606743317.608530) can0 0AB#0000000000000040
(1606743317.608768) can0 0AA#0700090800008001
(1606743317.609004) can0 0A8#2200ABE9D4FF1500
(1606743317.609252) can0 0A7#190000000000F9FF
(1606743317.609492) can0 0A6#E5FFE9FFE7FF0000
(1606743317.609728) can0 0A5#D206FFFFFEFFDC64
(1606743317.609978) can0 0A4#0000000000000000
(1606743317.610202) can0 0A3#EDB9D71EEEB9F71E
(1606743317.616786) can0 0AF#04000D020D029CEE
(1606743317.617032) can0 0AD#4E00000000000000
(1606743317.617276) can0 0AC#00000D005E000000
(1606743317.617526) can0 0AB#0000000000000040
(1606743317.617764) can0 0AA#0700090800008001
(1606743317.618000) can0 0A8#2200ABE9D6FF1A00
(1606743317.618244) can0 0A7#1A000000FDFFF7FF
(1606743317.618482) can0 0A6#E4FFEBFFE8FF0000
(1606743317.618716) can0 0A5#F706FBFFF8FFA46D
(1606743317.618966) can0 0A4#0000000000000000
(1606743317.619192) can0 0A3#EDB9D71EEEB9071F
(1606743317.625784) can0 0AF#04019CEE90FF9EFF
(1606743317.626032) can0 0AD#1200000000000000
(1606743317.626280) can0 0AC#0000080061000000
(1606743317.626530) can0 0AB#0000000000000040
(1606743317.626768) can0 0AA#0700090800008001
(1606743317.627002) can0 0A8#2200ABE9DEFF1100
(1606743317.627246) can0 0A7#1A000000FAFFF3FF
(1606743317.627487) can0 0A6#EBFFEEFFEAFF0000
(1606743317.627720) can0 0A5#D106F2FFE8FFEA75
(1606743317.627970) can0 0A4#0000000000000000
(1606743317.628196) can0 0A3#EDB9D71EEEB9071F
(1606743317.634786) can0 0AF#040291FF1B000000
(1606743317.635024) can0 0AE#1000B41911051820
(1606743317.635270) can0 0AD#7200000000000000
(1606743317.635518) can0 0AC#00000C0064000000
(1606743317.635768) can0 0AB#0000000000000040
(1606743317.636006) can0 0AA#0700090800008001
(1606743317.636242) can0 0A9#9700FB00FF018F04
(1606743317.636478) can0 0A8#2200ABE9DDFF1700
(1606743317.636720) can0 0A7#19000000F8FFF9FF
(1606743317.636962) can0 0A6#EAFFEDFFEBFF0000
(1606743317.637204) can0 0A5#2307FEFFFCFFC17D
(1606743317.637454) can0 0A4#0000000000000000
(1606743317.637678) can0 0A3#EEB9D71EEEB9F71E
(1606743317.637910) can0 0A2#F0D8F0D865050000
(1606743317.638136) can0 0A1#B90049083908F0D8
(1606743317.638372) can0 0A0#CE00D000D000B900
(1606743317.643177) can0 079#0000000000000000
(1606743317.643785) can0 0AF#0403000001000000
(1606743317.644033) can0 0AD#3D00000000000000
(1606743317.644279) can0 0AC#00000A0067000000
(1606743317.644529) can0 0AB#0000000000000040
(1606743317.644767) can0 0AA#0700090800008001
(1606743317.645003) can0 0A8#2200ABE9E1FF1400
(1606743317.645247) can0 0A7#1A000000FDFFF9FF
(1606743317.645487) can0 0A6#E8FFF3FFE9FF0000
(1606743317.645719) can0 0A5#C806EBFFDDFF2185
(1606743317.645969) can0 0A4#0000000000000000
(1606743317.646216) can0 002#0000323B00000000
(1606743317.646440) can0 0A3#EEB9D71EEEB9F71E
(1606743317.646769) can0 01C#0000000001000000
(1606743317.652875) can0 0AF#0404000000000000
(1606743317.653119) can0 0AD#AA00000000000000
(1606743317.653365) can0 0AC#000006006A000000
(1606743317.653615) can0 0AB#0000000000000040
(1606743317.653853) can0 0AA#0700090800008001
(1606743317.654091) can0 0A8#2200ABE9E0FF0D00
(1606743317.654337) can0 0A7#16000000FAFFF9FF
(1606743317.654577) can0 0A6#ECFFF2FFF0FF0000
(1606743317.654809) can0 0A5#8806EDFFE0FF328C
(1606743317.655059) can0 0A4#0000000000000000
(1606743317.655283) can0 0A3#EEB9D71EEEB9F71E
(1606743317.661781) can0 0AF#04058E0400000000
(1606743317.662029) can0 0AD#3F00000000000000
(1606743317.662273) can0 0AC#000008006D000000
(1606743317.662523) can0 0AB#0000000000000040
(1606743317.662761) can0 0AA#0700090800008001
(1606743317.662997) can0 0A8#2200ABE9DDFF1000
(1606743317.663241) can0 0A7#18000000FDFFF7FF
(1606743317.663481) can0 0A6#EBFFF0FFEFFF0000
(1606743317.663713) can0 0A5#B20609000E00C492
(1606743317.663963) can0 0A4#0000000000000000
(1606743317.664187) can0 0A3#EEB9D71EEEB9F71E
(1606743317.670779) can0 0AF#05000D020D029CEE
(1606743317.671023) can0 0AD#4C00000000000000
(1606743317.671269) can0 0AC#0000030070000000
(1606743317.671519) can0 0AB#0000000000000040
(1606743317.671757) can0 0AA#0700090800008001
(1606743317.671995) can0 0A8#2200ABE9E2FF0600
(1606743317.672239) can0 0A7#160000000000F7FF
(1606743317.672477) can0 0A6#F1FFF0FFEAFF0000
(1606743317.672711) can0 0A5#6406F1FFE6FF0799
(1606743317.672961) can0 0A4#0000000000000000
(1606743317.673185) can0 0A3#EDB9D71EEEB9F71E
(1606743317.679771) can0 0AF#05019CEE96FFA4FF
(1606743317.680017) can0 0AD#5C00000000000000
(1606743317.680261) can0 0AC#0000050073000000
(1606743317.680511) can0 0AB#0000000000000040
(1606743317.680749) can0 0AA#0700090800008001
(1606743317.680987) can0 0A8#2200ABE9E5FF0A00
(1606743317.681229) can0 0A7#19000000FDFFF7FF
(1606743317.681471) can0 0A6#F0FFF4FFEDFF0000
(1606743317.681707) can0 0A5#7C0607000B00EF9E
(1606743317.681957) can0 0A4#0000000000000000
(1606743317.682181) can0 0A3#EDB9D71EEEB9F71E
(1606743317.684483) can0 0C0#0000000001000000
(1606743317.687318) can0 037#0000C35E00000301
(1606743317.688776) can0 0AF#050288FF19000000
(1606743317.689020) can0 0AD#7700000000000000
(1606743317.689266) can0 0AC#0000080076000000
(1606743317.689516) can0 0AB#0000000000000040
(1606743317.689755) can0 0AA#0700090800008001
(1606743317.689990) can0 0A8#2200ABE9E1FF1100
(1606743317.690232) can0 0A7#19000000FAFFFCFF
(1606743317.690472) can0 0A6#EDFFEFFFEEFF0000
(1606743317.690702) can0 0A5#F2061900290084A4
(1606743317.690952) can0 0A4#0000000000000000
(1606743317.691176) can0 0A3#EDB9D71EEEB9F71E
(1606743317.697781) can0 0AF#0503000001000000
(1606743317.698026) can0 0AD#1C00000000000000
(1606743317.698272) can0 0AC#0000040079000000
(1606743317.698523) can0 0AB#0000000000000040
(1606743317.698764) can0 0AA#0700090000008001
(1606743317.699004) can0 0A8#2200ABE9EBFF0900
(1606743317.699246) can0 0A7#19000000FFFFF5FF
(1606743317.699487) can0 0A6#F4FFF6FFF0FF0000
(1606743317.699722) can0 0A5#C70609000F00C7A9
(1606743317.699972) can0 0A4#0000000000000000
(1606743317.700199) can0 0A3#EDB9D71EEEB9071F
(1606743317.706780) can0 0AF#0504000000000000
(1606743317.707026) can0 0AD#0500000000000000
(1606743317.707276) can0 0AC#000002007C000000
(1606743317.707527) can0 0AB#0000000000000040
(1606743317.707769) can0 0AA#0700090000008001
(1606743317.708009) can0 0A8#2200ABE9EEFF0400
(1606743317.708255) can0 0A7#150000000000FEFF
(1606743317.708494) can0 0A6#F8FFF6FFEDFF0000
(1606743317.708732) can0 0A5#8C06F9FFF4FFC0AE
(1606743317.708982) can0 0A4#0000000000000000
(1606743317.709209) can0 0A3#EDB9D71EEEB9071F
(1606743317.715860) can0 0AF#05058E0400000000
(1606743317.716107) can0 0AD#B800000000000000
(1606743317.716356) can0 0AC#000002007F000000
(1606743317.716606) can0 0AB#0000000000000040
(1606743317.716848) can0 0AA#0700090000008001
(1606743317.717086) can0 0A8#2200ABE9E4FF0400
(1606743317.717328) can0 0A7#19000000FFFFFCFF
(1606743317.717566) can0 0A6#F0FFF4FFF1FF0000
(1606743317.717798) can0 0A5#0A06E4FFD2FF84B3
(1606743317.718048) can0 0A4#0000000000000000
(1606743317.718272) can0 0A3#EDB9D71EEEB9F71E
(1606743317.724768) can0 0AF#06000D020D029CEE
(1606743317.725012) can0 0AD#2301000000000000
(1606743317.725262) can0 0AC#0000FFFF82000000
(1606743317.725512) can0 0AB#0000000000000040
(1606743317.725754) can0 0AA#0700090000008001
(1606743317.725996) can0 0A8#2200ABE9EBFFFDFF
(1606743317.726240) can0 0A7#18000000F8FFF9FF
(1606743317.726480) can0 0A6#F6FFF5FFF7FF0000
(1606743317.726712) can0 0A5#9905E6FFD4FFE2B7
(1606743317.726962) can0 0A4#0000000000000000
(1606743317.727186) can0 0A3#EDB9D71EEEB9F71E
(1606743317.733770) can0 0AF#06019CEE91FFA3FF
(1606743317.734008) can0 0AE#1000B41911051820
(1606743317.734255) can0 0AD#0B00000000000000
(1606743317.734502) can0 0AC#0000000085000000
(1606743317.734752) can0 0AB#0000000000000040
(1606743317.734994) can0 0AA#0700090000008001
(1606743317.735230) can0 0A9#9700FB00FF018D04
(1606743317.735466) can0 0A8#2200ABE9ECFF0100
(1606743317.735706) can0 0A7#19000000FAFFEEFF
(1606743317.735946) can0 0A6#F7FFF6FFE9FF0000
(1606743317.736180) can0 0A5#2A0612001E001CBC
(1606743317.736430) can0 0A4#0000000000000000
(1606743317.736655) can0 0A3#EDB9D71EEEB9F71E
(1606743317.736886) can0 0A2#F0D8F0D865050000
(1606743317.737112) can0 0A1#B90049083908F0D8
(1606743317.737348) can0 0A0#CE00D000D000B900
(1606743317.742770) can0 0AF#060290FF15000000
(1606743317.743018) can0 0AD#1F00000000000000
(1606743317.743266) can0 0AC#0000010088000000
(1606743317.743516) can0 0AB#0000000000000040
(1606743317.743758) can0 0AA#0700090000008001
(1606743317.743998) can0 0A8#2200ABE9F6FF0300
(1606743317.744242) can0 0A7#19000000FAFFF7FF
(1606743317.744488) can0 0A6#F8FFFEFFF3FF0000
(1606743317.744726) can0 0A5#E805FCFFFAFF0FC0
(1606743317.744973) can0 002#0000323B00000000
(1606743317.745223) can0 0A4#0000000000000000
(1606743317.745447) can0 0A3#EDB9D71EEEB9F71E
(1606743317.745837) can0 079#0000000000000000
(1606743317.749326) can0 01C#0000000001000000
(1606743317.751770) can0 0AF#0603000001000000
(1606743317.752014) can0 0AD#5900000000000000
(1606743317.752262) can0 0AC#000000008B000000
(1606743317.752512) can0 0AB#0000000000000040
(1606743317.752756) can0 0AA#0700090000008001
(1606743317.752992) can0 0A8#2200ABE9ECFF0000
(1606743317.753234) can0 0A7#19000000FFFFF9FF
(1606743317.753472) can0 0A6#F6FFF6FFF1FF0000
(1606743317.753712) can0 0A5#BF05F7FFF1FFBEC3
(1606743317.753962) can0 0A4#0000000000000000
(1606743317.754186) can0 0A3#EDB9D71EEEB9F71E
(1606743317.760772) can0 0AF#0604000000000000
(1606743317.761018) can0 0AD#0600000000000000
(1606743317.761266) can0 0AC#000001008E000000
(1606743317.761516) can0 0AB#0000000000000040
(1606743317.761758) can0 0AA#0700090000008001
(1606743317.761998) can0 0A8#2200ABE9F0FF0200
(1606743317.762242) can0 0A7#16000000FFFFFCFF
(1606743317.762482) can0 0A6#F6FFFAFFEBFF0000
(1606743317.762722) can0 0A5#EE05040006004DC7
(1606743317.762972) can0 0A4#0000000000000000
(1606743317.763196) can0 0A3#EDB9D71EEEB9F71E
(1606743317.769766) can0 0AF#06058E0400000000
(1606743317.770012) can0 0AD#0500000000000000
(1606743317.770257) can0 0AC#0000020091000000
(1606743317.770506) can0 0AB#0000000000000040
(1606743317.770748) can0 0AA#0700090000008001
(1606743317.770988) can0 0A8#2200ABE9F4FF0400
(1606743317.771230) can0 0A7#1B000000FDFFF9FF
(1606743317.771470) can0 0A6#F6FFFDFFF2FF0000
(1606743317.771704) can0 0A5#0D0610001A00A3CA
(1606743317.771954) can0 0A4#0000000000000000
(1606743317.772178) can0 0A3#EEB9D71EEEB9F71E
(1606743317.778914) can0 0AF#07000D020D02F0EE
(1606743317.779160) can0 0AD#8A00000000000000
(1606743317.779408) can0 0AC#0000000094000000
(1606743317.779658) can0 0AB#0000000000000040
(1606743317.779900) can0 0AA#0700090000008001
(1606743317.780140) can0 0A8#2200ABE9F2FF0000
(1606743317.780384) can0 0A7#190000000200F9FF
(1606743317.780626) can0 0A6#FAFFF8FF00000000
(1606743317.780866) can0 0A5#250600000000DACD
(1606743317.781116) can0 0A4#0000000000000000
(1606743317.781340) can0 0A3#EEB9D71EEEB9F71E
(1606743317.787826) can0 0AF#0701F0EE94FFA6FF
(1606743317.788072) can0 0AD#2600000000000000
(1606743317.788318) can0 0AC#0000020097000000
(1606743317.788568) can0 0AB#0000000000000040
(1606743317.788810) can0 0AA#0700090000008001
(1606743317.789052) can0 0A8#2200ABE9F0FF0400
(1606743317.789298) can0 0A7#18000000FFFFF3FF
(1606743317.789540) can0 0A6#F4FFFBFFF9FF0000
(1606743317.789776) can0 0A5#FC0502000200C9D0
(1606743317.790026) can0 0A4#0000000000000000
(1606743317.790250) can0 0A3#EEB9D71EEEB9F71E
(1606743317.791581) can0 0C0#0000000001000000
(1606743317.796571) can0 037#0000C35E00000301
(1606743317.796827) can0 0AF#070290FF16000000
(1606743317.797073) can0 0AD#5400000000000000
(1606743317.797323) can0 0AC#000000009A000000
(1606743317.797573) can0 0AB#0000000000000040
(1606743317.797815) can0 0AA#0700090000008001
(1606743317.798059) can0 0A8#2200ABE9F0FF0000
(1606743317.798303) can0 0A7#19000000FFFFF7FF
(1606743317.798543) can0 0A6#F8FFF8FFFDFF0000
(1606743317.798779) can0 0A5#FA05FAFFF5FF91D3
(1606743317.799029) can0 0A4#0000000000000000
(1606743317.799253) can0 0A3#EEB9D71EEEB9F71E
(1606743317.805831) can0 0AF#0703000001000000
(1606743317.806077) can0 0AD#2B00000000000000
(1606743317.806323) can0 0AC#000003009D000000
(1606743317.806573) can0 0AB#0000000000000040
(1606743317.806815) can0 0AA#0700090000008001
(1606743317.807055) can0 0A8#2200ABE9F2FF0500
(1606743317.807297) can0 0A7#16000000FDFFF5FF
(1606743317.807537) can0 0A6#F6FFFCFFF7FF0000
(1606743317.807773) can0 0A5#320607000B003AD6
(1606743317.808023) can0 0A4#0000000000000000
(1606743317.808247) can0 0A3#EEB9D71EEEB9F71E
(1606743317.814831) can0 0AF#0704000000000000
(1606743317.815077) can0 0AD#0300000000000000
(1606743317.815329) can0 0AC#00000000A0000000
(1606743317.815579) can0 0AB#0000000000000040
(1606743317.815821) can0 0AA#0700090000008001
(1606743317.816061) can0 0A8#2200ABE9F5FF0000
(1606743317.816305) can0 0A7#18000000FFFFFCFF
(1606743317.816547) can0 0A6#FBFFF9FFF8FF0000
(1606743317.816783) can0 0A5#250605000800BBD8
(1606743317.817033) can0 0A4#0000000000000000
(1606743317.817257) can0 0A3#EDB9D71EEEB9F71E
(1606743317.823829) can0 0AF#07058E0400000000
(1606743317.824075) can0 0AD#2500000000000000
(1606743317.824323) can0 0AC#00000000A3000000
(1606743317.824573) can0 0AB#0000000000000040
(1606743317.824815) can0 0AA#0700090000008001
(1606743317.825055) can0 0A8#2200ABE9F0FF0100
(1606743317.825295) can0 0A7#19000000FAFF0100
(1606743317.825533) can0 0A6#F6FFF6FFF8FF0000
(1606743317.825771) can0 0A5#3406040006001BDB
(1606743317.826021) can0 0A4#0000000000000000
(1606743317.826245) can0 0A3#EDB9D71EEEB9F71E
(1606743317.832829) can0 0AF#08000D020D02F0EE
(1606743317.833067) can0 0AE#1000B41911051820
(1606743317.833313) can0 0AD#0400000000000000
(1606743317.833561) can0 0AC#00000100A6000000
(1606743317.833809) can0 0AB#0000000000000040
(1606743317.834051) can0 0AA#0700090000008001
(1606743317.834285) can0 0A9#9700FB00FF018904
(1606743317.834527) can0 0A8#2200ABE9F0FF0300
(1606743317.834771) can0 0A7#1C000000FAFFF7FF
(1606743317.835009) can0 0A6#F6FFFDFFF6FF0000
(1606743317.835243) can0 0A5#1A06F8FFF2FF5ADD
(1606743317.835493) can0 0A4#0000000000000000
(1606743317.835717) can0 0A3#EDB9D71EEEB9F71E
(1606743317.835949) can0 0A2#F0D8F0D865050000
(1606743317.836177) can0 0A1#BB0049083908F0D8
(1606743317.836417) can0 0A0#CD00D000D000B700
(1606743317.841917) can0 0AF#0801F0EE94FFA3FF
(1606743317.842163) can0 0AD#1C00000000000000
(1606743317.842407) can0 0AC#00000400A9000000
(1606743317.842657) can0 0AB#0000000000000040
(1606743317.842899) can0 0AA#0700090000008001
(1606743317.843137) can0 0A8#2200ABE9F2FF0800
(1606743317.843379) can0 0A7#19000000FAFFF5FF
(1606743317.843617) can0 0A6#F4FFFDFFF8FF0000
(1606743317.843857) can0 0A5#4C060500080084DF
(1606743317.844104) can0 002#0000323B00000000
(1606743317.844354) can0 0A4#0000000000000000
(1606743317.844578) can0 0A3#EDB9D71EEEB9F71E
(1606743317.848510) can0 079#0000000000000000
(1606743317.850826) can0 0AF#080290FF19000000
(1606743317.851076) can0 0AD#1800000000000000
(1606743317.851322) can0 0AC#00000200AC000000
(1606743317.851572) can0 0AB#0000000000000040
(1606743317.851825) can0 01C#0000000001000000
(1606743317.852063) can0 0AA#0700090800008001
(1606743317.852303) can0 0A8#2200ABE9FBFF0500
(1606743317.852546) can0 0A7#19000000F8FFF9FF
(1606743317.852788) can0 0A6#FAFF0000FCFF0000
(1606743317.853019) can0 0A5#6A0610001A0085E1
(1606743317.853270) can0 0A4#0000000000000000
(1606743317.853495) can0 0A3#EDB9D71EEFB9F71E
(1606743317.859830) can0 0AF#0803000001000000
(1606743317.860074) can0 0AD#9900000000000000
(1606743317.860318) can0 0AC#00000200AF000000
(1606743317.860568) can0 0AB#0000000000000040
(1606743317.860805) can0 0AA#0700090800008001
(1606743317.861046) can0 0A8#2200ABE9F9FF0400
(1606743317.861291) can0 0A7#16000000F8FFF9FF
(1606743317.861537) can0 0A6#FBFFFEFFF3FF0000
(1606743317.861771) can0 0A5#BB061600220079E3
(1606743317.862022) can0 0A4#0000000000000000
(1606743317.862247) can0 0A3#EEB9D71EEFB9F71E
(1606743317.868834) can0 0AF#0804000000000000
(1606743317.869083) can0 0AD#3C00000000000000
(1606743317.869329) can0 0AC#00000400B2000000
(1606743317.869580) can0 0AB#0000000000000040
(1606743317.869817) can0 0AA#0700090800008001
(1606743317.870055) can0 0A8#2200ABE9F2FF0800
(1606743317.870297) can0 0A7#1B000000F8FFF9FF
(1606743317.870537) can0 0A6#F5FFFBFFFDFF0000
(1606743317.870775) can0 0A5#9D0607000D0047E5
(1606743317.871026) can0 0A4#0000000000000000
(1606743317.871249) can0 0A3#EEB9D71EEEB9F71E
(1606743317.877829) can0 0AF#08058E0400000000
(1606743317.878076) can0 0AD#2500000000000000
(1606743317.878321) can0 0AC#0000FFFFB5000000
(1606743317.878571) can0 0AB#0000000000000040
(1606743317.878809) can0 0AA#0700090800008001
(1606743317.879052) can0 0A8#2200ABE9F3FFFEFF
(1606743317.879298) can0 0A7#18000000FFFFF7FF
(1606743317.879541) can0 0A6#FEFFF6FFF7FF0000
(1606743317.879775) can0 0A5#4806ECFFDEFFF9E6
(1606743317.880026) can0 0A4#0000000000000000
(1606743317.880249) can0 0A3#EDB9D71EEEB9F71E
(1606743317.886824) can0 0AF#09000D020D02F0EE
(1606743317.887070) can0 0AD#9D00000000000000
(1606743317.887318) can0 0AC#00000000B8000000
(1606743317.887567) can0 0AB#0000000000000040
(1606743317.887805) can0 0AA#0700090800008001
(1606743317.888050) can0 0A8#2200ABE9F7FF0000
(1606743317.888297) can0 0A7#1C000000FFFFF5FF
(1606743317.888542) can0 0A6#FBFFFBFFFDFF0000
(1606743317.888775) can0 0A5#FA05EAFFDBFF94E8
(1606743317.889025) can0 0A4#0000000000000000
(1606743317.889256) can0 0A3#EDB9D71EEFB9071F
(1606743317.895830) can0 0AF#0901F0EE97FFA3FF
(1606743317.896076) can0 0AD#2900000000000000
(1606743317.896320) can0 0AC#00000100BB000000
(1606743317.896569) can0 0AB#0000000000000040
(1606743317.896807) can0 0AA#0700090800008001
(1606743317.897049) can0 0A8#2200ABE9FBFF0200
(1606743317.897291) can0 0A7#19000000FAFFF9FF
(1606743317.897537) can0 0A6#FBFFFFFFF7FF0000
(1606743317.897773) can0 0A5#63060400050018EA
(1606743317.898023) can0 0A4#0000000000000000
(1606743317.898253) can0 0A3#EDB9D71EEFB9071F
(1606743317.900809) can0 0C0#0000000001000000
(1606743317.904914) can0 0AF#090290FF1B000000
(1606743317.905165) can0 0AD#2F00000000000000
(1606743317.905415) can0 0AC#00000000BE000000
(1606743317.905665) can0 0AB#0000000000000040
(1606743317.905905) can0 037#0000C35E00000301
(1606743317.906143) can0 0AA#0700090800008001
(1606743317.906383) can0 0A8#2200ABE9FEFF0000
(1606743317.906623) can0 0A7#1B000000F6FFF9FF
(1606743317.906867) can0 0A6#FEFFFFFFFBFF0000
(1606743317.907105) can0 0A5#1D06F6FFEFFF81EB
(1606743317.907355) can0 0A4#0000000000000000
(1606743317.907579) can0 0A3#EDB9D71EEEB9F71E
(1606743317.913829) can0 0AF#0903000001000000
(1606743317.914075) can0 0AD#0B00000000000000
(1606743317.914325) can0 0AC#00000000C1000000
(1606743317.914575) can0 0AB#0000000000000040
(1606743317.914813) can0 0AA#0700090800008001
(1606743317.915055) can0 0A8#2200ABE9F8FF0100
(1606743317.915297) can0 0A7#19000000FDFFFCFF
(1606743317.915541) can0 0A6#FCFFFCFFFEFF0000
(1606743317.915781) can0 0A5#300600000000D7EC
(1606743317.916031) can0 0A4#0000000000000000
(1606743317.916255) can0 0A3#EDB9D71EEEB9F71E
(1606743317.922831) can0 0AF#0904000000000000
(1606743317.923077) can0 0AD#5200000000000000
(1606743317.923323) can0 0AC#00000200C4000000
(1606743317.923573) can0 0AB#0000000000000040
(1606743317.923811) can0 0AA#0700090800008001
(1606743317.924053) can0 0A8#2200ABE9F3FF0500
(1606743317.924297) can0 0A7#180000000000F5FF
(1606743317.924539) can0 0A6#F6FFFDFFFBFF0000
(1606743317.924779) can0 0A5#3306FBFFF8FF13EE
(1606743317.925029) can0 0A4#0000000000000000
(1606743317.925255) can0 0A3#EDB9D71EEEB9071F
(1606743317.931821) can0 0AF#09058E0400000000
(1606743317.932059) can0 0AE#1000B41911051820
(1606743317.932305) can0 0AD#1B00000000000000
(1606743317.932551) can0 0AC#00000000C7000000
(1606743317.932801) can0 0AB#0000000000000040
(1606743317.933039) can0 0AA#0700090800008001
(1606743317.933273) can0 0A9#9700FB00FF018904
(1606743317.933515) can0 0A8#2200ABE9F8FFFFFF
(1606743317.933763) can0 0A7#18000000FFFFF9FF
(1606743317.934009) can0 0A6#FFFFFAFFFEFF0000
(1606743317.934243) can0 0A5#57060D00150046EF
(1606743317.934493) can0 0A4#0000000000000000
(1606743317.934719) can0 0A3#EDB9D71EEEB9071F
(1606743317.934951) can0 0A2#F0D8F0D865050000
(1606743317.935178) can0 0A1#BA0049083908F0D8
(1606743317.935415) can0 0A0#CD00D000D000B900
(1606743317.940879) can0 0AF#0A000D020D02F0EE
(1606743317.941125) can0 0AD#1100000000000000
(1606743317.941373) can0 0AC#00000000CA000000
(1606743317.941622) can0 0AB#0000000000000040
(1606743317.941861) can0 0AA#0700090800008001
(1606743317.942102) can0 0A8#2200ABE9FCFF0000
(1606743317.942348) can0 0A7#190000000000FEFF
(1606743317.942593) can0 0A6#FFFFFDFFFEFF0000
(1606743317.942840) can0 0A5#34060000FFFF69F0
(1606743317.943090) can0 0A4#0000000000000000
(1606743317.943314) can0 0A3#EEB9D71EEEB9F71E
(1606743317.946067) can0 002#0000323B00000000
(1606743317.949600) can0 01C#0000000001000000
(1606743317.949840) can0 0AF#0A01F0EE97FFA3FF
(1606743317.950084) can0 0AD#6700000000000000
(1606743317.950328) can0 0AC#00000100CD000000
(1606743317.950578) can0 0AB#0000000000000040
(1606743317.950816) can0 0AA#0700090800008001
(1606743317.951058) can0 0A8#2200ABE9F4FF0200
(1606743317.951310) can0 079#0000000000000000
(1606743317.951552) can0 0A7#1B000000FDFFF3FF
(1606743317.951794) can0 0A6#F9FFFAFFFBFF0000
(1606743317.952032) can0 0A5#5C06FFFFFEFF77F1
(1606743317.952282) can0 0A4#0000000000000000
(1606743317.952505) can0 0A3#EEB9D71EEEB9F71E
(1606743317.958813) can0 0AF#0A0290FF19000000
(1606743317.959057) can0 0AD#4900000000000000
(1606743317.959305) can0 0AC#00000000D0000000
(1606743317.959555) can0 0AB#0000000000000040
(1606743317.959793) can0 0AA#0700090800008001
(1606743317.960035) can0 0A8#2200ABE9F3FFFFFF
(1606743317.960279) can0 0A7#1B000000FFFFF9FF
(1606743317.960517) can0 0A6#FDFFF8FF09000000
(1606743317.960753) can0 0A5#3506FCFFF9FF73F2
(1606743317.961003) can0 0A4#0000000000000000
(1606743317.961227) can0 0A3#EDB9D71EEEB9F71E
(1606743317.967969) can0 0AF#0A03000001000000
(1606743317.968214) can0 0AD#4100000000000000
(1606743317.968459) can0 0AC#00000100D3000000
(1606743317.968709) can0 0AB#0000000000000040
(1606743317.968947) can0 0AA#0700090800008001
(1606743317.969189) can0 0A8#2200ABE900000200
(1606743317.969432) can0 0A7#19000000FDFFFCFF
(1606743317.969673) can0 0A6#FDFF0200FEFF0000
(1606743317.969913) can0 0A5#60060000FFFF68F3
(1606743317.970163) can0 0A4#0000000000000000
(1606743317.970389) can0 0A3#EDB9D71EEEB9071F
(1606743317.976821) can0 0AF#0A04000000000000
(1606743317.977069) can0 0AD#2A00000000000000
(1606743317.977316) can0 0AC#00000000D6000000
(1606743317.977565) can0 0AB#0000000000000040
(1606743317.977803) can0 0AA#0700090800008001
(1606743317.978046) can0 0A8#2200ABE9F8FF0000
(1606743317.978291) can0 0A7#180000000000F9FF
(1606743317.978535) can0 0A6#FDFFFBFFFFFF0000
(1606743317.978770) can0 0A5#760607000B0057F4
(1606743317.979019) can0 0A4#0000000000000000
(1606743317.979245) can0 0A3#EDB9D71EEEB9071F
(1606743317.985813) can0 0AF#0A058E0400000000
(1606743317.986059) can0 0AD#0A00000000000000
(1606743317.986305) can0 0AC#00000000D9000000
(1606743317.986555) can0 0AB#0000000000000040
(1606743317.986793) can0 0AA#0700090800008001
(1606743317.987033) can0 0A8#2200ABE9FEFFFFFF
(1606743317.987277) can0 0A7#1A000000FFFFF9FF
(1606743317.987521) can0 0A6#0000FEFFFFFF0000
(1606743317.987757) can0 0A5#810607000B0038F5
(1606743317.988007) can0 0A4#0000000000000000
(1606743317.988231) can0 0A3#EEB9D71EEEB9F71E
(1606743317.994810) can0 0AF#0B000D020D02F1EE
(1606743317.995056) can0 0AD#0600000000000000
(1606743317.995303) can0 0AC#00000000DC000000
(1606743317.995553) can0 0AB#0000000000000040
(1606743317.995791) can0 0AA#0700090800008001
(1606743317.996033) can0 0A8#2200ABE900000000
(1606743317.996279) can0 0A7#1400000006000000
(1606743317.996525) can0 0A6#00000000F9FF0000
(1606743317.996763) can0 0A5#6006FFFFFEFF0AF6
(1606743317.997014) can0 0A4#0000000000000000
(1606743317.997239) can0 0A3#EEB9D71EEFB9F71E
(1606743318.003809) can0 0AF#0B01F0EE94FFA3FF
(1606743318.004056) can0 0AD#2100000000000000
(1606743318.004305) can0 0AC#00000000DF000000
(1606743318.004555) can0 0AB#0000000000000040
(1606743318.004797) can0 0AA#0700090000008001
(1606743318.005037) can0 0A8#2200ABE9FEFF0100
(1606743318.005282) can0 0A7#18000000FDFFF9FF
(1606743318.005525) can0 0A6#FEFF000002000000
(1606743318.005761) can0 0A5#5206F1FFE7FFD2F6
(1606743318.006012) can0 0A4#0000000000000000
(1606743318.006239) can0 0A3#EEB9D71EEFB9071F
(1606743318.007897) can0 0C0#0000000001000000
(1606743318.012805) can0 0AF#0B0293FF1D000000
(1606743318.013047) can0 037#0000C35F00000301
(1606743318.013293) can0 0AD#1100000000000000
(1606743318.013539) can0 0AC#00000200E2000000
(1606743318.013789) can0 0AB#0000000000000040
(1606743318.014031) can0 0AA#0700090000008001
(1606743318.014271) can0 0A8#2200ABE900000500
(1606743318.014513) can0 0A7#19000000FAFFF9FF
(1606743318.014759) can0 0A6#FBFF020000000000
(1606743318.014993) can0 0A5#8D0607000C0092F7
(1606743318.015243) can0 0A4#0000000000000000
(1606743318.015471) can0 0A3#EEB9D71EEEB9071F
(1606743318.021811) can0 0AF#0B03000001000000
(1606743318.022057) can0 0AD#0500000000000000
(1606743318.022305) can0 0AC#00000000E5000000
(1606743318.022555) can0 0AB#0000000000000040
(1606743318.022797) can0 0AA#0700090000008001
(1606743318.023039) can0 0A8#2200ABE904000000
(1606743318.023285) can0 0A7#16000000F8FFF9FF
(1606743318.023535) can0 0A6#0000020005000000
(1606743318.023772) can0 0A5#7606FEFFFDFF48F8
(1606743318.024021) can0 0A4#0000000000000000
(1606743318.024247) can0 0A3#EDB9D71EEEB9071F
(1606743318.030961) can0 0AF#0B04000000000000
(1606743318.031199) can0 0AE#1000B41911051820
(1606743318.031447) can0 0AD#3200000000000000
(1606743318.031693) can0 0AC#00000100E8000000
(1606743318.031943) can0 0AB#0000000000000040
(1606743318.032185) can0 0AA#0700090000008001
(1606743318.032419) can0 0A9#9700FB00FF018704
(1606743318.032659) can0 0A8#2200ABE9FAFF0200
(1606743318.032903) can0 0A7#180000000000FCFF
(1606743318.033147) can0 0A6#FBFFFEFF00000000
(1606743318.033383) can0 0A5#8A06FDFFFBFFF4F8
(1606743318.033633) can0 0A4#0000000000000000
(1606743318.033857) can0 0A3#EDB9D71EEEB9F71E
(1606743318.034089) can0 0A2#F0D8F0D865050000
(1606743318.034317) can0 0A1#BA0049083908F0D8
(1606743318.034553) can0 0A0#CE00D000D000B900
(1606743318.039805) can0 0AF#0B058E0400000000
(1606743318.040055) can0 0AD#0800000000000000
(1606743318.040303) can0 0AC#00000100EB000000
(1606743318.040553) can0 0AB#0000000000000040
(1606743318.040795) can0 0AA#0700090000008001
(1606743318.041037) can0 0A8#2200ABE9FBFF0200
(1606743318.041285) can0 0A7#18000000FFFFF9FF
(1606743318.041529) can0 0A6#FBFFFEFF00000000
(1606743318.041765) can0 0A5#A40606000A0090F9
(1606743318.042015) can0 0A4#0000000000000000
(1606743318.042239) can0 0A3#EEB9D71EEEB9F71E
(1606743318.045174) can0 002#0000323B00000000
(1606743318.048864) can0 0AF#0C000D020D02F0EE
(1606743318.049112) can0 0AD#3200000000000000
(1606743318.049360) can0 0AC#00000000EE000000
(1606743318.049610) can0 0AB#0000000000000040
(1606743318.049852) can0 0AA#0700090000008001
(1606743318.050094) can0 0A8#2200ABE9FCFF0000
(1606743318.050336) can0 0A7#19000000FDFFF9FF
(1606743318.050580) can0 0A6#FEFFFEFFFBFF0000
(1606743318.050814) can0 0A5#9B06FAFFF5FF27FA
(1606743318.051064) can0 0A4#0000000000000000
(1606743318.051290) can0 0A3#EEB9D71EEEB9071F
(1606743318.051543) can0 01C#0000000001000000
(1606743318.053879) can0 079#0000000000000000
(1606743318.057803) can0 0AF#0C01F0EE8BFFA3FF
(1606743318.058049) can0 0AD#1400000000000000
(1606743318.058297) can0 0AC#00000000F1000000
(1606743318.058547) can0 0AB#0000000000000040
(1606743318.058789) can0 0AA#0700090000008001
(1606743318.059033) can0 0A8#2200ABE9FFFFFFFF
(1606743318.059275) can0 0A7#19000000FFFFF9FF
(1606743318.059521) can0 0A6#0000FEFF00000000
(1606743318.059755) can0 0A5#B5060B001100B7FA
(1606743318.060005) can0 0A4#0000000000000000
(1606743318.060231) can0 0A3#EEB9D71EEEB9071F
(1606743318.066799) can0 0AF#0C028EFF1A000000
(1606743318.067045) can0 0AD#6800000000000000
(1606743318.067297) can0 0AC#00000000F4000000
(1606743318.067547) can0 0AB#0000000000000040
(1606743318.067789) can0 0AA#0700090000008001
(1606743318.068029) can0 0A8#2200ABE9FAFF0000
(1606743318.068271) can0 0A7#15000000FDFFFEFF
(1606743318.068515) can0 0A6#FEFFFBFF0E000000
(1606743318.068751) can0 0A5#3806EAFFDCFF3FFB
(1606743318.069001) can0 0A4#0000000000000000
(1606743318.069225) can0 0A3#EEB9D71EEEB9F71E
(1606743318.075803) can0 0AF#0C03000001000000
(1606743318.076049) can0 0AD#4100000000000000
(1606743318.076297) can0 0AC#0000FFFFF7000000
(1606743318.076547) can0 0AB#0000000000000040
(1606743318.076789) can0 0AA#0700090000008001
(1606743318.077029) can0 0A8#2200ABE9F8FFFDFF
(1606743318.077271) can0 0A7#19000000F8FFF7FF
(1606743318.077515) can0 0A6#0000F8FF00000000
(1606743318.077751) can0 0A5#620602000200C3FB
(1606743318.078001) can0 0A4#0000000000000000
(1606743318.078225) can0 0A3#EEB9D71EEEB9F71E
(1606743318.084803) can0 0AF#0C04000000000000
(1606743318.085049) can0 0AD#7200000000000000
(1606743318.085299) can0 0AC#00000000FA000000
(1606743318.085549) can0 0AB#0000000000000040
(1606743318.085791) can0 0AA#0700090000008001
(1606743318.086035) can0 0A8#2200ABE905000000
(1606743318.086279) can0 0A7#18000000FFFFFCFF
(1606743318.086525) can0 0A6#00000300FEFF0000
(1606743318.086759) can0 0A5#0206F2FFE8FF37FC
(1606743318.087009) can0 0A4#0000000000000000
(1606743318.087233) can0 0A3#EEB9D71EEEB9F71E
(1606743318.093949) can0 0AF#0C058E0400000000
(1606743318.094197) can0 0AD#1500000000000000
(1606743318.094447) can0 0AC#00000000FD000000
(1606743318.094697) can0 0AB#0000000000000040
(1606743318.094939) can0 0AA#0700090000008001
(1606743318.095181) can0 0A8#2200ABE9FDFF0000
(1606743318.095423) can0 0A7#19000000FAFFFCFF
(1606743318.095671) can0 0A6#FEFFFEFF00000000
(1606743318.095911) can0 0A5#1F06F7FFF1FF9BFC
(1606743318.096161) can0 0A4#0000000000000000
(1606743318.096387) can0 0A3#EEB9D71EEEB9071F
(1606743318.102793) can0 0AF#0D000D020D02F0EE
(1606743318.103039) can0 0AD#2A00000000000000
(1606743318.103287) can0 0AC#0000010000010000
(1606743318.103537) can0 0AB#0000000000000040
(1606743318.103779) can0 0AA#0700090000008001
(1606743318.104017) can0 0A8#2200ABE9FEFF0300
(1606743318.104261) can0 0A7#1B000000FDFFF7FF
(1606743318.104507) can0 0A6#FBFF0000FBFF0000
(1606743318.104743) can0 0A5#55060E001600FBFC
(1606743318.104993) can0 0A4#0000000000000000
(1606743318.105219) can0 0A3#EDB9D71EEEB9071F
(1606743318.111795) can0 0AF#0D01F0EE97FFA0FF
(1606743318.112043) can0 0AD#3F00000000000000
(1606743318.112289) can0 0AC#0000010003010000
(1606743318.112539) can0 0AB#0000000000000040
(1606743318.112781) can0 0AA#0700090000008001
(1606743318.113019) can0 0A8#2200ABE9FEFF0300
(1606743318.113261) can0 0A7#19000000FDFFF9FF
(1606743318.113505) can0 0A6#FBFF0000FEFF0000
(1606743318.113743) can0 0A5#390609000F0060FD
(1606743318.113993) can0 0A4#0000000000000000
(1606743318.114221) can0 0A3#EDB9D71EEEBD071F
(1606743318.117108) can0 0C0#0000000001000000
(1606743318.120786) can0 0AF#0D028EFF1B000000
(1606743318.121036) can0 0AD#1800000000000000
(1606743318.121284) can0 0AC#0000000006010000
(1606743318.121534) can0 0AB#0000000000000040
(1606743318.121775) can0 0AA#0700090000008001
(1606743318.122015) can0 0A8#2200ABE9FEFF0000
(1606743318.122260) can0 0A7#1A000000FFFFF9FF
(1606743318.122499) can0 037#0000C35E00000301
(1606743318.122743) can0 0A6#FFFFFEFFFEFF0000
(1606743318.122983) can0 0A5#3A0607000C00BCFD
(1606743318.123233) can0 0A4#0000000000000000
(1606743318.123461) can0 0A3#EEB9D71EEEBD071F
(1606743318.129795) can0 0AF#0D03000001000000
(1606743318.130033) can0 0AE#1000B41911051820
(1606743318.130279) can0 0AD#1700000000000000
(1606743318.130525) can0 0AC#0000000009010000
(1606743318.130775) can0 0AB#0000000000000040
(1606743318.131017) can0 0AA#0700090000008001
(1606743318.131251) can0 0A9#9700FB00FF018904
(1606743318.131491) can0 0A8#2200ABE9FEFF0000
(1606743318.131733) can0 0A7#19000000FDFFF9FF
(1606743318.131978) can0 0A6#FFFFFEFF03000000
(1606743318.132215) can0 0A5#1206FBFFF8FF0DFE
(1606743318.132465) can0 0A4#0000000000000000
(1606743318.132691) can0 0A3#EEB9D71EEFB9F71E
(1606743318.132923) can0 0A2#F0D8F0D865050000
(1606743318.133149) can0 0A1#B90049083908F0D8
(1606743318.133385) can0 0A0#CE00D000D000B900
(1606743318.138795) can0 0AF#0D04000000000000
(1606743318.139039) can0 0AD#4800000000000000
(1606743318.139287) can0 0AC#000001000C010000
(1606743318.139537) can0 0AB#0000000000000040
(1606743318.139779) can0 0AA#0700090000008001
(1606743318.140017) can0 0A8#2200ABE9F8FF0200
(1606743318.140261) can0 0A7#1E0000000000F3FF
(1606743318.140503) can0 0A6#F9FFFEFFF8FF0000
(1606743318.140743) can0 0A5#E805F7FFF0FF57FE
(1606743318.140993) can0 0A4#0000000000000000
(1606743318.141217) can0 0A3#EEB9D71EEEB9F71E
(1606743318.143887) can0 002#0000323B00000000
(1606743318.147789) can0 0AF#0D058E0400000000
(1606743318.148033) can0 0AD#5E00000000000000
(1606743318.148279) can0 0AC#000001000F010000
(1606743318.148529) can0 0AB#0000000000000040
(1606743318.148767) can0 0AA#0700090800008001
(1606743318.149009) can0 0A8#2200ABE9FBFF0200
(1606743318.149255) can0 0A7#1A000000FAFFF9FF
(1606743318.149499) can0 0A6#FCFFFEFF03000000
(1606743318.149737) can0 0A5#460606000A00A0FE
(1606743318.149987) can0 0A4#0000000000000000
(1606743318.150211) can0 0A3#EEB9D71EEEB9F71E
(1606743318.152912) can0 01C#0000000001000000
(1606743318.154519) can0 079#0000000000000000
(1606743318.156931) can0 0AF#0E000D020D02F0EE
(1606743318.157177) can0 0AD#1700000000000000
(1606743318.157423) can0 0AC#0000010012010000
(1606743318.157673) can0 0AB#0000000000000040
(1606743318.157911) can0 0AA#0700090800008001
(1606743318.158153) can0 0A8#2200ABE9FEFF0200
(1606743318.158401) can0 0A7#1A000000FFFFF3FF
(1606743318.158649) can0 0A6#FCFF0000FBFF0000
(1606743318.158889) can0 0A5#F905F1FFE6FFE5FE
(1606743318.159139) can0 0A4#0000000000000000
(1606743318.159363) can0 0A3#EEB9D71EEEB9F71E
(1606743318.165783) can0 0AF#0E01F0EE97FFA6FF
(1606743318.166029) can0 0AD#2A00000000000000
(1606743318.166275) can0 0AC#0000000015010000
(1606743318.166525) can0 0AB#0000000000000040
(1606743318.166763) can0 0AA#0700090800008001
(1606743318.167005) can0 0A8#2200ABE9FBFF0100
(1606743318.167253) can0 0A7#1A000000FFFFF7FF
(1606743318.167497) can0 0A6#FCFFFFFF04000000
(1606743318.167731) can0 0A5#F305F5FFEDFF2AFF
(1606743318.167981) can0 0A4#0000000000000000
(1606743318.168207) can0 0A3#EEB9D71EEEB9071F
(1606743318.174781) can0 0AF#0E028EFF1B000000
(1606743318.175027) can0 0AD#1100000000000000
(1606743318.175275) can0 0AC#0000020018010000
(1606743318.175525) can0 0AB#0000000000000040
(1606743318.175763) can0 0AA#0700090800008001
(1606743318.176005) can0 0A8#2200ABE900000400
(1606743318.176249) can0 0A7#190000000000FCFF
(1606743318.176495) can0 0A6#FCFF040001000000
(1606743318.176731) can0 0A5#1D06FEFFFDFF5CFF
(1606743318.176981) can0 0A4#0000000000000000
(1606743318.177207) can0 0A3#EEB9D71EEEBDF71E
(1606743318.183791) can0 0AF#0E03000001000000
(1606743318.184037) can0 0AD#1D00000000000000
(1606743318.184279) can0 0AC#0000FEFF1B010000
(1606743318.184529) can0 0AB#0000000000000040
(1606743318.184767) can0 0AA#0700090800008001
(1606743318.185005) can0 0A8#2200ABE90200FCFF
(1606743318.185251) can0 0A7#18000000FFFFF7FF
(1606743318.185495) can0 0A6#0400FFFF01000000
(1606743318.185731) can0 0A5#4E06050007009DFF
(1606743318.185982) can0 0A4#0000000000000000
(1606743318.186207) can0 0A3#EDB9D71EEEBDF71E
(1606743318.192787) can0 0AF#0E04000000000000
(1606743318.193035) can0 0AD#2D00000000000000
(1606743318.193285) can0 0AC#000000001E010000
(1606743318.193535) can0 0AB#0000000000000040
(1606743318.193773) can0 0AA#0700090800008001
(1606743318.194013) can0 0A8#2200ABE9FEFF0000
(1606743318.194257) can0 0A7#15000000FFFFF9FF
(1606743318.194503) can0 0A6#FFFFFFFFFFFF0000
(1606743318.194741) can0 0A5#690609000F00E0FF
(1606743318.194991) can0 0A4#0000000000000000
(1606743318.195217) can0 0A3#EDB9D71EEEB9071F
(1606743318.201782) can0 0AF#0E058E0400000000
(1606743318.202027) can0 0AD#1400000000000000
(1606743318.202273) can0 0AC#0000010021010000
(1606743318.202523) can0 0AB#0000000000000040
(1606743318.202761) can0 0AA#0700090800008001
(1606743318.203003) can0 0A8#2200ABE9FFFF0300
(1606743318.203247) can0 0A7#1A000000F8FFF3FF
(1606743318.203491) can0 0A6#FCFF010004000000
(1606743318.203731) can0 0A5#7D060B0012001E00
(1606743318.203983) can0 0A4#0000000000000000
(1606743318.204207) can0 0A3#EEB9D71EEEB9071F
(1606743318.210775) can0 0AF#0F000D020D02F0EE
(1606743318.211021) can0 0AD#AC00000000000000
(1606743318.211267) can0 0AC#0000000024010000
(1606743318.211517) can0 0AB#0000000000000040
(1606743318.211755) can0 0AA#0700090800008001
(1606743318.211997) can0 0A8#2200ABE900000000
(1606743318.212241) can0 0A7#1A000000FDFFFCFF
(1606743318.212487) can0 0A6#FFFF0100FFFF0000
(1606743318.212721) can0 0A5#CB060B0011005600
(1606743318.212971) can0 0A4#0000000000000000
(1606743318.213195) can0 0A3#EDB9D71EEEB9F71E
(1606743318.219927) can0 0AF#0F01F0EE91FFA9FF
(1606743318.220175) can0 0AD#5F00000000000000
(1606743318.220423) can0 0AC#0000010027010000
(1606743318.220673) can0 0AB#0000000000000040
(1606743318.220911) can0 0AA#0700090800008001
(1606743318.221149) can0 0A8#2200ABE9FCFF0300
(1606743318.221391) can0 0A7#19000000FFFFFCFF
(1606743318.221635) can0 0A6#FCFFFFFFFEFF0000
(1606743318.221871) can0 0A5#FA06160023009400
(1606743318.222121) can0 0A4#0000000000000000
(1606743318.222347) can0 0A3#EDB9D71EEEBDF71E
(1606743318.226307) can0 0C0#0000000001000000
(1606743318.228775) can0 0AF#0F028BFF15000000
(1606743318.229013) can0 0AE#1000B41911051820
(1606743318.229263) can0 0AD#0800000000000000
(1606743318.229509) can0 0AC#000000002A010000
(1606743318.229759) can0 0AB#0000000000000040
(1606743318.229997) can0 0AA#0700090800008001
(1606743318.230233) can0 0A9#9700FB00FF018504
(1606743318.230473) can0 0A8#2200ABE9FEFF0000
(1606743318.230719) can0 0A7#180000000000F7FF
(1606743318.230965) can0 0A6#FFFFFFFF00000000
(1606743318.231201) can0 0A5#9806F9FFF5FFCD00
(1606743318.231451) can0 0A4#0000000000000000
(1606743318.231693) can0 037#0000C35F00000301
(1606743318.231921) can0 0A3#EDB9D71EEEBD071F
(1606743318.232153) can0 0A2#F0D8F0D865050000
(1606743318.232379) can0 0A1#B90049083908F0D8
(1606743318.232613) can0 0A0#CD00D000CF00B900
(1606743318.237775) can0 0AF#0F03000001000000
(1606743318.238019) can0 0AD#9A00000000000000
(1606743318.238265) can0 0AC#000000002D010000
(1606743318.238515) can0 0AB#0000000000000040
(1606743318.238753) can0 0AA#0700090800008001
(1606743318.238993) can0 0A8#2200ABE9FEFF0000
(1606743318.239235) can0 0A7#19000000FAFFF9FF
(1606743318.239481) can0 0A6#FFFFFFFFFEFF0000
(1606743318.239719) can0 0A5#4A06F7FFF1FFF900
(1606743318.239969) can0 0A4#0000000000000000
(1606743318.240194) can0 0A3#EDB9D71EEEB9071F
(1606743318.246000) can0 002#0000323B00000000
(1606743318.246780) can0 0AF#0F04000000000000
(1606743318.247026) can0 0AD#0B00000000000000
(1606743318.247274) can0 0AC#0000010030010000
(1606743318.247524) can0 0AB#0000000000000040
(1606743318.247762) can0 0AA#0700090800008001
(1606743318.248004) can0 0A8#2200ABE9F8FF0100
(1606743318.248246) can0 0A7#19000000F8FF0000
(1606743318.248488) can0 0A6#FCFFFCFF00000000
(1606743318.248724) can0 0A5#8506050008002701
(1606743318.248974) can0 0A4#0000000000000000
(1606743318.249200) can0 0A3#EDB9D71EEEB9071F
(1606743318.252487) can0 01C#0000000001000000
(1606743318.255769) can0 0AF#0F058E0400000000
(1606743318.256017) can0 0AD#1500000000000000
(1606743318.256264) can0 0AC#0000010033010000
(1606743318.256514) can0 0AB#0000000000000040
(1606743318.256751) can0 0AA#0700090800008001
(1606743318.256991) can0 0A8#2200ABE9FCFF0200
(1606743318.257243) can0 079#0000000000000000
(1606743318.257488) can0 0A7#19000000FFFFFEFF
(1606743318.257731) can0 0A6#FCFFFFFFFBFF0000
(1606743318.257966) can0 0A5#8C060B0012005201
(1606743318.258216) can0 0A4#0000000000000000
(1606743318.258442) can0 0A3#EDB9D71EEEB9071F
(1606743318.264770) can0 0AF#10000D020D02F0EE
(1606743318.265016) can0 0AD#0B00000000000000
(1606743318.265266) can0 0AC#0000010036010000
(1606743318.265516) can0 0AB#0000000000000040
(1606743318.265754) can0 0AA#0700090800008001
(1606743318.265994) can0 0A8#2200ABE9FCFF0200
(1606743318.266238) can0 0A7#1B000000FDFFF5FF
(1606743318.266482) can0 0A6#FCFFFFFF00000000
(1606743318.266722) can0 0A5#8406020002007B01
(1606743318.266972) can0 0A4#0000000000000000
(1606743318.267198) can0 0A3#EDB9D71EEEB9071F
(1606743318.273836) can0 0AF#1001F0EE91FFA0FF
(1606743318.274084) can0 0AD#6400000000000000
(1606743318.274330) can0 0AC#0000000039010000
(1606743318.274580) can0 0AB#0000000000000040
(1606743318.274818) can0 0AA#0700090800008001
(1606743318.275060) can0 0A8#2200ABE9FBFFFFFF
(1606743318.275308) can0 0A7#18000000FFFFF9FF
(1606743318.275552) can0 0A6#FFFFFCFFFEFF0000
(1606743318.275790) can0 0A5#2106ECFFDEFFA401
(1606743318.276040) can0 0A4#0000000000000000
(1606743318.276266) can0 0A3#EDB9D71EEEB9071F
(1606743318.282916) can0 0AF#10028EFF1A000000
(1606743318.283162) can0 0AD#4600000000000000
(1606743318.283408) can0 0AC#000000003C010000
(1606743318.283658) can0 0AB#0000000000000040
(1606743318.283896) can0 0AA#0700090800008001
(1606743318.284138) can0 0A8#2200ABE9FFFF0000
(1606743318.284382) can0 0A7#1A000000FFFFF9FF
(1606743318.284626) can0 0A6#FFFF000001000000
(1606743318.284862) can0 0A5#910606000A00BF01
(1606743318.285112) can0 0A4#0000000000000000
(1606743318.285338) can0 0A3#EDB9D71EEEB9071F
(1606743318.291834) can0 0AF#1003000001000000
(1606743318.292078) can0 0AD#4800000000000000
(1606743318.292326) can0 0AC#000000003F010000
(1606743318.292576) can0 0AB#0000000000000040
(1606743318.292814) can0 0AA#0700090800008001
(1606743318.293054) can0 0A8#2200ABE90300FFFF
(1606743318.293298) can0 0A7#18000000FDFFF9FF
(1606743318.293540) can0 0A6#02000200FEFF0000
(1606743318.293776) can0 0A5#8506F6FFEFFFEA01
(1606743318.294026) can0 0A4#0000000000000000
(1606743318.294252) can0 0A3#EEB9D71EEEB9071F
(1606743318.300834) can0 0AF#1004000000000000
(1606743318.301080) can0 0AD#2100000000000000
(1606743318.301326) can0 0AC#0000000042010000
(1606743318.301576) can0 0AB#0000000000000040
(1606743318.301818) can0 0AA#0700090000008001
(1606743318.302060) can0 0A8#2200ABE902000000
(1606743318.302302) can0 0A7#19000000FFFFF9FF
(1606743318.302548) can0 0A6#00000200FBFF0000
(1606743318.302788) can0 0A5#A006FFFFFEFF0F02
(1606743318.303038) can0 0A4#0000000000000000
(1606743318.303264) can0 0A3#EEB9D71EEEB9071F
(1606743318.309830) can0 0AF#10058E0400000000
(1606743318.310078) can0 0AD#2D00000000000000
(1606743318.310324) can0 0AC#0000000045010000
(1606743318.310574) can0 0AB#0000000000000040
(1606743318.310816) can0 0AA#0700090000008001
(1606743318.311060) can0 0A8#2200ABE90400FFFF
(1606743318.311302) can0 0A7#1B000000FAFFF7FF
(1606743318.311546) can0 0A6#02000200FFFF0000
(1606743318.311782) can0 0A5#5F06EEFFE2FF3002
(1606743318.312032) can0 0A4#0000000000000000
(1606743318.312256) can0 0A3#EEB9D71EEEB9F71E
(1606743318.318830) can0 0AF#11000D020D02F0EE
(1606743318.319080) can0 0AD#3C00000000000000
(1606743318.319326) can0 0AC#0000FFFF48010000
(1606743318.319576) can0 0AB#0000000000000040
(1606743318.319818) can0 0AA#0700090000008001
(1606743318.320060) can0 0A8#2200ABE9FEFFFEFF
(1606743318.320302) can0 0A7#1B000000FAFFF7FF
(1606743318.320544) can0 0A6#0200FDFF04000000
(1606743318.320780) can0 0A5#B506030005005502
(1606743318.321030) can0 0A4#0000000000000000
(1606743318.321258) can0 0A3#EEB9D71EEEBD071F
(1606743318.327828) can0 0AF#1101F0EE94FFA6FF
(1606743318.328066) can0 0AE#1000B41911051820
(1606743318.328312) can0 0AD#4100000000000000
(1606743318.328558) can0 0AC#000000004B010000
(1606743318.328808) can0 0AB#0000000000000040
(1606743318.329050) can0 0AA#0700090000008001
(1606743318.329284) can0 0A9#9700FB00FF018804
(1606743318.329524) can0 0A8#2200ABE905000100
(1606743318.329768) can0 0A7#18000000FDFFF7FF
(1606743318.330012) can0 0A6#00000500FEFF0000
(1606743318.330250) can0 0A5#7606F8FFF3FF6E02
(1606743318.330500) can0 0A4#0000000000000000
(1606743318.330727) can0 0A3#EDB9D71EEEBD071F
(1606743318.330959) can0 0A2#F0D8F0D865050000
(1606743318.331187) can0 0A1#BA0049083908F0D8
(1606743318.331423) can0 0A0#CD00D000D000B900
(1606743318.333211) can0 0C0#0000000001000000
(1606743318.336825) can0 0AF#11028EFF16000000
(1606743318.337071) can0 0AD#1100000000000000
(1606743318.337317) can0 0AC#000000004E010000
(1606743318.337567) can0 0AB#0000000000000040
(1606743318.337809) can0 0AA#0700090000008001
(1606743318.338051) can0 0A8#2200ABE9FFFF0000
(1606743318.338293) can0 0A7#18000000F8FFFCFF
(1606743318.338532) can0 037#0000C35E00000301
(1606743318.338784) can0 0A6#00000000FFFF0000
(1606743318.339018) can0 0A5#7906FDFFFAFF8502
(1606743318.339268) can0 0A4#0000000000000000
(1606743318.339494) can0 0A3#EDB9D71EEEB9071F
(1606743318.345119) can0 002#0000323B00000000
(1606743318.345919) can0 0AF#1103000001000000
(1606743318.346169) can0 0AD#1000000000000000
(1606743318.346415) can0 0AC#0000000051010000
(1606743318.346665) can0 0AB#0000000000000040
(1606743318.346907) can0 0AA#0700090000008001
(1606743318.347149) can0 0A8#2200ABE900000000
(1606743318.347391) can0 0A7#1B000000F6FFF5FF
(1606743318.347637) can0 0A6#00000000F9FF0000
(1606743318.347875) can0 0A5#7D0605000A00A202
(1606743318.348125) can0 0A4#0000000000000000
(1606743318.348353) can0 0A3#EEB9D71EEEBD071F
(1606743318.354180) can0 01C#0000000001000000
(1606743318.354836) can0 0AF#1104000000000000
(1606743318.355086) can0 0AD#1000000000000000
(1606743318.355332) can0 0AC#0000000054010000
(1606743318.355582) can0 0AB#0000000000000040
(1606743318.355824) can0 0AA#0700090000008001
(1606743318.356066) can0 0A8#2200ABE902000000
(1606743318.356308) can0 0A7#1A000000FAFFFCFF
(1606743318.356554) can0 0A6#0000020007000000
(1606743318.356788) can0 0A5#5306F3FFEAFFB502
(1606743318.357038) can0 0A4#0000000000000000
(1606743318.357266) can0 0A3#EEB9D71EEEBD071F
(1606743318.357799) can0 079#0000000000000000
(1606743318.363830) can0 0AF#11058E0400000000
(1606743318.364075) can0 0AD#6D00000000000000
(1606743318.364321) can0 0AC#0000000057010000
(1606743318.364570) can0 0AB#0000000000000040
(1606743318.364812) can0 0AA#0700090000008001
(1606743318.365054) can0 0A8#2200ABE9FCFF0000
(1606743318.365297) can0 0A7#19000000FDFFF9FF
(1606743318.365545) can0 0A6#0000FDFFFFFF0000
(1606743318.365783) can0 0A5#BA0605000A00DC02
(1606743318.366033) can0 0A4#0000000000000000
(1606743318.366259) can0 0A3#EEB9D71EEEB9071F
(1606743318.372829) can0 0AF#12000D020D02F0EE
(1606743318.373075) can0 0AD#1B00000000000000
(1606743318.373319) can0 0AC#0000FFFF5A010000
(1606743318.373569) can0 0AB#0000000000000040
(1606743318.373811) can0 0AA#0700090000008001
(1606743318.374051) can0 0A8#2200ABE90000FEFF
(1606743318.374293) can0 0A7#1B000000FDFFF9FF
(1606743318.374541) can0 0A6#02000000FFFF0000
(1606743318.374775) can0 0A5#DF0615002300F302
(1606743318.375025) can0 0A4#0000000000000000
(1606743318.375251) can0 0A3#EEB9D71EEEB9071F
(1606743318.381826) can0 0AF#1201F0EE9AFFACFF
(1606743318.382070) can0 0AD#4F00000000000000
(1606743318.382316) can0 0AC#000001005D010000
(1606743318.382567) can0 0AB#0000000000000040
(1606743318.382809) can0 0AA#0700090000008001
(1606743318.383048) can0 0A8#2200ABE9FDFF0200
(1606743318.383293) can0 0A7#18000000F1FFFCFF
(1606743318.383536) can0 0A6#FDFF0000FFFF0000
(1606743318.383775) can0 0A5#780600000100F902
(1606743318.384024) can0 0A4#0000000000000000
(1606743318.384252) can0 0A3#EEB9D71EEFB9071F
(1606743318.390829) can0 0AF#12028EFF1B000000
(1606743318.391074) can0 0AD#0500000000000000
(1606743318.391318) can0 0AC#0000FDFF60010000
(1606743318.391568) can0 0AB#0000000000000040
(1606743318.391810) can0 0AA#0700090000008001
(1606743318.392048) can0 0A8#2200ABE90500F8FF
(1606743318.392294) can0 0A7#18000000FFFFF7FF
(1606743318.392540) can0 0A6#0800000000000000
(1606743318.392778) can0 0A5#9B06040007001103
(1606743318.393028) can0 0A4#0000000000000000
(1606743318.393256) can0 0A3#EEB9D71EEFB9071F
(1606743318.399832) can0 0AF#1203000001000000
(1606743318.400082) can0 0AD#FFFF000000000000
(1606743318.400329) can0 0AC#0000FFFF63010000
(1606743318.400579) can0 0AB#0000000000000040
(1606743318.400821) can0 0AA#0700090000008001
(1606743318.401063) can0 0A8#2200ABE9FEFFFEFF
(1606743318.401307) can0 0A7#18000000FDFFF9FF
(1606743318.401548) can0 0A6#0200FDFFFDFF0000
(1606743318.401786) can0 0A5#BF060B0011002303
(1606743318.402036) can0 0A4#0000000000000000
(1606743318.402264) can0 0A3#EEB9D71EEEBD071F
(1606743318.408924) can0 0AF#1204000000000000
(1606743318.409170) can0 0AD#1400000000000000
(1606743318.409416) can0 0AC#0000000066010000
(1606743318.409667) can0 0AB#0000000000000040
(1606743318.409908) can0 0AA#0700090000008001
(1606743318.410150) can0 0A8#2200ABE900000000
(1606743318.410392) can0 0A7#1A0000000200F7FF
(1606743318.410642) can0 0A6#0000000001000000
(1606743318.410882) can0 0A5#B206010001002D03
(1606743318.411132) can0 0A4#0000000000000000
(1606743318.411360) can0 0A3#EEB9D71EEEBD071F
(1606743318.417828) can0 0AF#12058E0400000000
(1606743318.418078) can0 0AD#1300000000000000
(1606743318.418323) can0 0AC#0000FFFF69010000
(1606743318.418572) can0 0AB#0000000000000040
(1606743318.418814) can0 0AA#0700090000008001
(1606743318.419054) can0 0A8#2200ABE90000FEFF
(1606743318.419296) can0 0A7#19000000FDFFFCFF
(1606743318.419542) can0 0A6#0200000002000000
(1606743318.419778) can0 0A5#CC060B0012004303
(1606743318.420028) can0 0A4#0000000000000000
(1606743318.420255) can0 0A3#EEB9D71EEEB9071F
(1606743318.426885) can0 0AF#13000D020D02F0EE
(1606743318.427122) can0 0AE#1000B41911051820
(1606743318.427369) can0 0AD#5700000000000000
(1606743318.427614) can0 0AC#000000006C010000
(1606743318.427864) can0 0AB#0000000000000040
(1606743318.428106) can0 0AA#0700090000008001
(1606743318.428342) can0 0A9#9700FB00FF017F04
(1606743318.428585) can0 0A8#2200ABE900000000
(1606743318.428832) can0 0A7#18000000FFFFF9FF
(1606743318.429082) can0 0A6#0000000000000000
(1606743318.429322) can0 0A5#7506FDFFFBFF5003
(1606743318.429572) can0 0A4#0000000000000000
(1606743318.429801) can0 0A3#EEBDD71EEFBD071F
(1606743318.430032) can0 0A2#F0D8F0D865050000
(1606743318.430258) can0 0A1#BD0049083908F0D8
(1606743318.430496) can0 0A0#CD00D000D000B900
(1606743318.435822) can0 0AF#1301F0EE94FF9DFF
(1606743318.436068) can0 0AD#2900000000000000
(1606743318.436314) can0 0AC#000001006F010000
(1606743318.436564) can0 0AB#0000000000000040
(1606743318.436806) can0 0AA#0700090000008001
(1606743318.437048) can0 0A8#2200ABE900000200
(1606743318.437290) can0 0A7#19000000FAFFFCFF
(1606743318.437534) can0 0A6#FDFF020008000000
(1606743318.437770) can0 0A5#9106F8FFF2FF6503
(1606743318.438020) can0 0A4#0000000000000000
(1606743318.438248) can0 0A3#EEBDD71EEFBD071F
(1606743318.442099) can0 0C0#0000000001000000
(1606743318.443900) can0 002#0000323B00000000
(1606743318.444820) can0 0AF#130296FF1A000000
(1606743318.445068) can0 0AD#1F00000000000000
(1606743318.445310) can0 0AC#0000FEFF72010000
(1606743318.445560) can0 0AB#0000000000000040
(1606743318.445802) can0 0AA#0700090000008001
(1606743318.446044) can0 0A8#2200ABE90300FBFF
(1606743318.446288) can0 0A7#18000000FDFFF7FF
(1606743318.446530) can0 0A6#05000000FCFF0000
(1606743318.446764) can0 0A5#6F06F4FFEBFF6903
(1606743318.447014) can0 0A4#0000000000000000
(1606743318.447256) can0 037#0000C35F00000301
(1606743318.447484) can0 0A3#EEB9D71EEEBD071F
(1606743318.453826) can0 0AF#1303000001000000
(1606743318.454079) can0 01C#0000000001000000
(1606743318.454329) can0 0AD#1300000000000000
(1606743318.454575) can0 0AC#0000000075010000
(1606743318.454825) can0 0AB#0000000000000040
(1606743318.455063) can0 0AA#0700090800008001
(1606743318.455303) can0 0A8#2200ABE905000100
(1606743318.455551) can0 0A7#18000000FFFFF9FF
(1606743318.455793) can0 0A6#00000500F7FF0000
(1606743318.456031) can0 0A5#6406EFFFE3FF7903
(1606743318.456281) can0 0A4#0000000000000000
(1606743318.456509) can0 0A3#EEB9D71EEEBD071F
(1606743318.460391) can0 079#0000000000000000
(1606743318.462827) can0 0AF#1304000000000000
(1606743318.463075) can0 0AD#1900000000000000
(1606743318.463323) can0 0AC#0000000078010000
(1606743318.463573) can0 0AB#0000000000000040
(1606743318.463811) can0 0AA#0700090800008001
(1606743318.464053) can0 0A8#2200ABE900000000
(1606743318.464295) can0 0A7#19000000FDFFF7FF
(1606743318.464545) can0 0A6#0000000000000000
(1606743318.464783) can0 0A5#B6060A0010007F03
(1606743318.465033) can0 0A4#0000000000000000
(1606743318.465261) can0 0A3#EEB9D71EEEBD071F
(1606743318.471905) can0 0AF#13058E0400000000
(1606743318.472151) can0 0AD#9100000000000000
(1606743318.472399) can0 0AC#0000FFFF7B010000
(1606743318.472647) can0 0AB#0000000000000040
(1606743318.472885) can0 0AA#0700090800008001
(1606743318.473123) can0 0A8#2200ABE90100FEFF
(1606743318.473367) can0 0A7#180000000000FCFF
(1606743318.473611) can0 0A6#02000000FDFF0000
(1606743318.473847) can0 0A5#6206FDFFFBFF8C03
(1606743318.474099) can0 0A4#0000000000000000
(1606743318.474325) can0 0A3#EEB9D71EEEBD071F
(1606743318.480815) can0 0AF#14000D020D02F0EE
(1606743318.481061) can0 0AD#9000000000000000
(1606743318.481309) can0 0AC#000000007E010000
(1606743318.481559) can0 0AB#0000000000000040
(1606743318.481799) can0 0AA#0700090800008001
(1606743318.482039) can0 0A8#2200ABE9FCFF0000
(1606743318.482283) can0 0A7#1A000000F6FFF7FF
(1606743318.482525) can0 0A6#0000FDFFEEFF0000
(1606743318.482761) can0 0A5#11071F0033009B03
(1606743318.483011) can0 0A4#0000000000000000
(1606743318.483239) can0 0A3#EEB9D71EEFB9071F
(1606743318.489817) can0 0AF#1401F0EE97FFA6FF
(1606743318.490065) can0 0AD#8800000000000000
(1606743318.490313) can0 0AC#0000010081010000
(1606743318.490563) can0 0AB#0000000000000040
(1606743318.490801) can0 0AA#0700090800008001
(1606743318.491043) can0 0A8#2200ABE9FBFF0200
(1606743318.491285) can0 0A7#19000000FFFFF5FF
(1606743318.491529) can0 0A6#FDFFFDFF01000000
(1606743318.491765) can0 0A5#080708000D00A703
(1606743318.492015) can0 0A4#0000000000000000
(1606743318.492243) can0 0A3#EDB9D71EEEBD071F
(1606743318.498813) can0 0AF#14028EFF15000000
(1606743318.499059) can0 0AD#4E00000000000000
(1606743318.499303) can0 0AC#0000FFFF84010000
(1606743318.499553) can0 0AB#0000000000000040
(1606743318.499791) can0 0AA#0700090800008001
(1606743318.500029) can0 0A8#2200ABE90100FEFF
(1606743318.500271) can0 0A7#19000000FDFFF7FF
(1606743318.500517) can0 0A6#0200000000000000
(1606743318.500753) can0 0A5#F206F9FFF4FFAC03
(1606743318.501003) can0 0A4#0000000000000000
(1606743318.501231) can0 0A3#EDB9D71EEEBD071F
(1606743318.507817) can0 0AF#1403000001000000
(1606743318.508061) can0 0AD#4F00000000000000
(1606743318.508307) can0 0AC#0000000087010000
(1606743318.508557) can0 0AB#0000000000000040
(1606743318.508795) can0 0AA#0700090800008001
(1606743318.509037) can0 0A8#2200ABE902000000
(1606743318.509281) can0 0A7#1A0000000000F5FF
(1606743318.509525) can0 0A6#00000200FAFF0000
(1606743318.509761) can0 0A5#E20606000A00BA03
(1606743318.510011) can0 0A4#0000000000000000
(1606743318.510237) can0 0A3#EDB9D71EEEB9071F
(1606743318.516817) can0 0AF#1404000000000000
(1606743318.517063) can0 0AD#0500000000000000
(1606743318.517309) can0 0AC#000001008A010000
(1606743318.517558) can0 0AB#0000000000000040
(1606743318.517796) can0 0AA#0700090800008001
(1606743318.518038) can0 0A8#2200ABE9FEFF0200
(1606743318.518284) can0 0A7#16000000FAFFF7FF
(1606743318.518530) can0 0A6#FDFF000004000000
(1606743318.518766) can0 0A5#E90606000A00C003
(1606743318.519016) can0 0A4#0000000000000000
(1606743318.519242) can0 0A3#EEB9D71EEEB9071F
(1606743318.525812) can0 0AF#14058E0400000000
(1606743318.526050) can0 0AE#1000B41911051820
(1606743318.526298) can0 0AD#6F00000000000000
(1606743318.526544) can0 0AC#000000008D010000
(1606743318.526794) can0 0AB#0000000000000040
(1606743318.527032) can0 0AA#0700090800008001
(1606743318.527268) can0 0A9#9700FB00FF018404
(1606743318.527510) can0 0A8#2200ABE9FCFF0000
(1606743318.527754) can0 0A7#16000000FDFF0100
(1606743318.527996) can0 0A6#0000FDFF01000000
(1606743318.528234) can0 0A5#9106F7FFF0FFC903
(1606743318.528484) can0 0A4#0000000000000000
(1606743318.528712) can0 0A3#EEB9D71EEEBD071F
(1606743318.528944) can0 0A2#F0D8F0D865050000
(1606743318.529170) can0 0A1#B90049083908F0D8
(1606743318.529404) can0 0A0#CD00D000CF00B900
(1606743318.534954) can0 0AF#15000D020D02F0EE
(1606743318.535202) can0 0AD#0D00000000000000
(1606743318.535450) can0 0AC#0000010090010000
(1606743318.535702) can0 0AB#0000000000000040
(1606743318.535938) can0 0AA#0700090800008001
(1606743318.536180) can0 0A8#2200ABE900000200
(1606743318.536426) can0 0A7#1A000000FAFFF9FF
(1606743318.536670) can0 0A6#FDFF020001000000
(1606743318.536908) can0 0A5#BE06FEFFFDFFD203
(1606743318.537158) can0 0A4#0000000000000000
(1606743318.537386) can0 0A3#EEB9D71EEEBD071F
(1606743318.543808) can0 0AF#1501F0EE94FFA3FF
(1606743318.544058) can0 0AD#2F00000000000000
(1606743318.544304) can0 0AC#0000000093010000
(1606743318.544554) can0 0AB#0000000000000040
(1606743318.544792) can0 0AA#0700090800008001
(1606743318.545034) can0 0A8#2200ABE902000000
(1606743318.545278) can0 0A7#1A000000FDFFF7FF
(1606743318.545526) can0 0A6#00000200FFFF0000
(1606743318.545764) can0 0A5#C70600000000DE03
(1606743318.546011) can0 002#0000323B00000000
(1606743318.546261) can0 0A4#0000000000000000
(1606743318.546487) can0 0A3#EEB9D71EEEB9071F
(1606743318.551060) can0 0C0#0000000001000000
(1606743318.552804) can0 0AF#15028EFF19000000
(1606743318.553050) can0 0AD#0B00000000000000
(1606743318.553296) can0 0AC#0000000096010000
(1606743318.553546) can0 0AB#0000000000000040
(1606743318.553784) can0 0AA#0700090800008001
(1606743318.554023) can0 037#0000C35E00000301
(1606743318.554265) can0 0A8#2200ABE902000000
(1606743318.554510) can0 0A7#1C000000FDFFF0FF
(1606743318.554759) can0 0A6#0000020008000000
(1606743318.554998) can0 0A5#C406FDFFFBFFE403
(1606743318.555248) can0 0A4#0000000000000000
(1606743318.555474) can0 0A3#EEB9D71EEEB9071F
(1606743318.555727) can0 01C#0000000001000000
(1606743318.561809) can0 0AF#1503000001000000
(1606743318.562057) can0 0AD#2200000000000000
(1606743318.562304) can0 0AC#0000020099010000
(1606743318.562553) can0 0AB#0000000000000040
(1606743318.562791) can0 0AA#0700090800008001
(1606743318.563042) can0 079#0000000000000000
(1606743318.563280) can0 0A8#2200ABE9FCFF0500
(1606743318.563524) can0 0A7#1B000000FDFFF7FF
(1606743318.563772) can0 0A6#FBFF000002000000
(1606743318.564008) can0 0A5#CE0604000600F203
(1606743318.564258) can0 0A4#0000000000000000
(1606743318.564487) can0 0A3#EDB9D71EEEBD071F
(1606743318.570810) can0 0AF#1504000000000000
(1606743318.571056) can0 0AD#4E00000000000000
(1606743318.571302) can0 0AC#000000009C010000
(1606743318.571552) can0 0AB#0000000000000040
(1606743318.571790) can0 0AA#0700090800008001
(1606743318.572032) can0 0A8#2200ABE902000000
(1606743318.572274) can0 0A7#190000000600F9FF
(1606743318.572522) can0 0A6#0000020002000000
(1606743318.572760) can0 0A5#8206F8FFF2FFF403
(1606743318.573010) can0 0A4#0000000000000000
(1606743318.573236) can0 0A3#EDB9D71EEEB9071F
(1606743318.579805) can0 0AF#15058E0400000000
(1606743318.580050) can0 0AD#3A00000000000000
(1606743318.580298) can0 0AC#000000009F010000
(1606743318.580548) can0 0AB#0000000000000040
(1606743318.580786) can0 0AA#0700090800008001
(1606743318.581030) can0 0A8#2200ABE905000000
(1606743318.581276) can0 0A7#180000000000F3FF
(1606743318.581524) can0 0A6#0000050000000000
(1606743318.581762) can0 0A5#A406FBFFF7FFF603
(1606743318.582012) can0 0A4#0000000000000000
(1606743318.582238) can0 0A3#EEB9D71EEEB9071F
(1606743318.588798) can0 0AF#16000D020D02F0EE
(1606743318.589048) can0 0AD#1000000000000000
(1606743318.589296) can0 0AC#00000000A2010000
(1606743318.589546) can0 0AB#0000000000000040
(1606743318.589784) can0 0AA#0700090800008001
(1606743318.590026) can0 0A8#2200ABE902000000
(1606743318.590268) can0 0A7#16000000FDFFF9FF
(1606743318.590516) can0 0A6#0000020000000000
(1606743318.590754) can0 0A5#A606FCFFF9FFFE03
(1606743318.591006) can0 0A4#0000000000000000
(1606743318.591230) can0 0A3#EEB9D71EEEB9071F
(1606743318.597948) can0 0AF#1601F0EE94FFA3FF
(1606743318.598194) can0 0AD#2B00000000000000
(1606743318.598438) can0 0AC#0000FFFFA5010000
(1606743318.598688) can0 0AB#0000000000000040
(1606743318.598930) can0 0AA#0700090000008001
(1606743318.599170) can0 0A8#2200ABE9FEFFFDFF
(1606743318.599414) can0 0A7#1A0000000000F7FF
(1606743318.599656) can0 0A6#0200FDFF02000000
(1606743318.599896) can0 0A5#B406FCFFF9FF0204
(1606743318.600146) can0 0A4#0000000000000000
(1606743318.600372) can0 0A3#EEB9D71EEEB9071F
(1606743318.606798) can0 0AF#160290FF19000000
(1606743318.607044) can0 0AD#1C00000000000000
(1606743318.607292) can0 0AC#00000000A8010000
(1606743318.607542) can0 0AB#0000000000000040
(1606743318.607784) can0 0AA#0700090000008001
(1606743318.608028) can0 0A8#2200ABE9F7FF0000
(1606743318.608272) can0 0A7#15000000FFFFF9FF
(1606743318.608514) can0 0A6#FEFFFAFF02000000
(1606743318.608754) can0 0A5#8306F8FFF2FF0204
(1606743318.609004) can0 0A4#0000000000000000
(1606743318.609232) can0 0A3#EEB9D71EEEBD071F
(1606743318.615798) can0 0AF#1603000001000000
(1606743318.616046) can0 0AD#3100000000000000
(1606743318.616289) can0 0AC#0000FFFFAB010000
(1606743318.616539) can0 0AB#0000000000000040
(1606743318.616781) can0 0AA#0700090000008001
(1606743318.617021) can0 0A8#2200ABE90100FDFF
(1606743318.617263) can0 0A7#19000000FDFFFCFF
(1606743318.617510) can0 0A6#0200000008000000
(1606743318.617745) can0 0A5#CE060C0013000704
(1606743318.617995) can0 0A4#0000000000000000
(1606743318.618223) can0 0A3#EEB9D71EEEBD071F
(1606743318.624803) can0 0AF#1604000000000000
(1606743318.625041) can0 0AE#1000B41911051820
(1606743318.625288) can0 0AD#5C00000000000000
(1606743318.625531) can0 0AC#0000FFFFAE010000
(1606743318.625781) can0 0AB#0000000000000040
(1606743318.626023) can0 0AA#0700090000008001
(1606743318.626257) can0 0A9#9700FB00FF018804
(1606743318.626495) can0 0A8#2200ABE90100FEFF
(1606743318.626740) can0 0A7#1A000000FDFFF7FF
(1606743318.626983) can0 0A6#02000000FDFF0000
(1606743318.627225) can0 0A5#8706020002000A04
(1606743318.627475) can0 0A4#0000000000000000
(1606743318.627701) can0 0A3#EEB9D71EEEB9071F
(1606743318.627933) can0 0A2#F0D8F0D865050000
(1606743318.628161) can0 0A1#BA0049083908F0D8
(1606743318.628398) can0 0A0#CD00D000D000B900
(1606743318.633793) can0 0AF#16058E0400000000
(1606743318.634043) can0 0AD#3000000000000000
(1606743318.634287) can0 0AC#00000100B1010000
(1606743318.634537) can0 0AB#0000000000000040
(1606743318.634779) can0 0AA#0700090000008001
(1606743318.635019) can0 0A8#2200ABE9FEFF0100
(1606743318.635261) can0 0A7#1B000000FDFFF9FF
(1606743318.635505) can0 0A6#FEFF000002000000
(1606743318.635745) can0 0A5#8C0607000B001504
(1606743318.635995) can0 0A4#0000000000000000
(1606743318.636221) can0 0A3#EDB9D71EEEB9071F
(1606743318.642851) can0 0AF#17000D020D02F0EE
(1606743318.643097) can0 0AD#0300000000000000
(1606743318.643341) can0 0AC#0000FEFFB4010000
(1606743318.643591) can0 0AB#0000000000000040
(1606743318.643833) can0 0AA#0700090000008001
(1606743318.644075) can0 0A8#2200ABE90400FBFF
(1606743318.644317) can0 0A7#1B000000FDFFF9FF
(1606743318.644563) can0 0A6#0500000000000000
(1606743318.644799) can0 0A5#7006FDFFFBFF1504
(1606743318.645047) can0 002#0000323B00000000
(1606743318.645296) can0 0A4#0000000000000000
(1606743318.645523) can0 0A3#EEB9D71EEEB9071F
(1606743318.651791) can0 0AF#1701F0EE97FFA0FF
(1606743318.652037) can0 0AD#4300000000000000
(1606743318.652283) can0 0AC#00000000B7010000
(1606743318.652533) can0 0AB#0000000000000040
(1606743318.652775) can0 0AA#0700090000008001
(1606743318.653015) can0 0A8#2200ABE9FEFF0100
(1606743318.653259) can0 0A7#1A000000FAFFF7FF
(1606743318.653505) can0 0A6#FEFF000000000000
(1606743318.653743) can0 0A5#730609000E001604
(1606743318.653993) can0 0A4#0000000000000000
(1606743318.654218) can0 0A3#EEB9D71EEEB9071F
(1606743318.657251) can0 01C#0000000001000000
(1606743318.660012) can0 0C0#0000000001000000
(1606743318.660934) can0 0AF#170290FF19000000
(1606743318.661178) can0 0AD#4B00000000000000
(1606743318.661424) can0 0AC#0000FFFFBA010000
(1606743318.661674) can0 0AB#0000000000000040
(1606743318.661916) can0 0AA#0700090000008001
(1606743318.662154) can0 0A8#2200ABE90500FEFF
(1606743318.662404) can0 0A7#1A000000F3FFF9FF
(1606743318.662646) can0 0A6#02000200F1FF0000
(1606743318.662884) can0 0A5#9806060009001A04
(1606743318.663125) can0 037#0000C35F00000301
(1606743318.663375) can0 0A4#0000000000000000
(1606743318.663602) can0 0A3#EEB9D71EEEB9071F
(1606743318.665662) can0 079#0000000000000000
(1606743318.669796) can0 0AF#1703000001000000
(1606743318.670046) can0 0AD#FFFF000000000000
(1606743318.670294) can0 0AC#00000000BD010000
(1606743318.670544) can0 0AB#0000000000000040
(1606743318.670786) can0 0AA#0700090000008001
(1606743318.671028) can0 0A8#2200ABE900000000
(1606743318.671270) can0 0A7#19000000FDFFF7FF
(1606743318.671518) can0 0A6#0000000002000000
(1606743318.671758) can0 0A5#8006FFFFFEFF1C04
(1606743318.672008) can0 0A4#0000000000000000
(1606743318.672236) can0 0A3#EEB9D71EEEBD071F
(1606743318.678792) can0 0AF#1704000000000000
(1606743318.679038) can0 0AD#AC00000000000000
(1606743318.679286) can0 0AC#00000000C0010000
(1606743318.679536) can0 0AB#0000000000000040
(1606743318.679778) can0 0AA#0700090000008001
(1606743318.680020) can0 0A8#2200ABE900000000
(1606743318.680262) can0 0A7#1A0000000200F7FF
(1606743318.680512) can0 0A6#0000000000000000
(1606743318.680752) can0 0A5#3606FBFFF8FF1C04
(1606743318.681002) can0 0A4#0000000000000000
(1606743318.681230) can0 0A3#EEB9D71EEEBD071F
(1606743318.687784) can0 0AF#17058E0400000000
(1606743318.688034) can0 0AD#1000000000000000
(1606743318.688282) can0 0AC#00000000C3010000
(1606743318.688531) can0 0AB#0000000000000040
(1606743318.688774) can0 0AA#0700090000008001
(1606743318.689013) can0 0A8#2200ABE903000000
(1606743318.689257) can0 0A7#16000000FFFFF9FF
(1606743318.689505) can0 0A6#00000200FDFF0000
(1606743318.689741) can0 0A5#710609000E001A04
(1606743318.689992) can0 0A4#0000000000000000
(1606743318.690220) can0 0A3#EEB9D71EEEBD071F
(1606743318.696783) can0 0AF#18000D020D02F0EE
(1606743318.697033) can0 0AD#2F00000000000000
(1606743318.697279) can0 0AC#00000000C6010000
(1606743318.697530) can0 0AB#0000000000000040
(1606743318.697772) can0 0AA#0700090000008001
(1606743318.698013) can0 0A8#2200ABE900000000
(1606743318.698255) can0 0A7#19000000FDFFF7FF
(1606743318.698501) can0 0A6#00000000FAFF0000
(1606743318.698737) can0 0A5#880609000E001804
(1606743318.698988) can0 0A4#0000000000000000
(1606743318.699215) can0 0A3#EEB9D71EEEBD071F
(1606743318.705843) can0 0AF#1801F0EE94FFA0FF
(1606743318.706091) can0 0AD#1E00000000000000
(1606743318.706338) can0 0AC#00000100C9010000
(1606743318.706587) can0 0AB#0000000000000040
(1606743318.706829) can0 0AA#0700090000008001
(1606743318.707071) can0 0A8#2200ABE9FEFF0200
(1606743318.707317) can0 0A7#1A000000FFFFFEFF
(1606743318.707563) can0 0A6#FEFF000000000000
(1606743318.707799) can0 0A5#BC06150022001804
(1606743318.708049) can0 0A4#0000000000000000
(1606743318.708277) can0 0A3#EDB9D71EEEBD071F
(1606743318.714779) can0 0AF#180293FF1B000000
(1606743318.715027) can0 0AD#3B00000000000000
(1606743318.715271) can0 0AC#0000FFFFCC010000
(1606743318.715521) can0 0AB#0000000000000040
(1606743318.715763) can0 0AA#0700090000008001
(1606743318.716001) can0 0A8#2200ABE90500FEFF
(1606743318.716243) can0 0A7#19000000FDFFF7FF
(1606743318.716487) can0 0A6#0200020005000000
(1606743318.716721) can0 0A5#8406FCFFF9FF1C04
(1606743318.716971) can0 0A4#0000000000000000
(1606743318.717197) can0 0A3#EDBDD71EEEB9071F
(1606743318.723933) can0 0AF#1803000001000000
(1606743318.724171) can0 0AE#1000B41911051820
(1606743318.724417) can0 0AD#1D00000000000000
(1606743318.724663) can0 0AC#0000FFFFCF010000
(1606743318.724914) can0 0AB#0000000000000040
(1606743318.725155) can0 0AA#0700090000008001
(1606743318.725391) can0 0A9#9700FB00FF018A04
(1606743318.725629) can0 0A8#2200ABE90500FEFF
(1606743318.725875) can0 0A7#1A000000F1FFF7FF
(1606743318.726121) can0 0A6#0200020002000000
(1606743318.726359) can0 0A5#9706FFFFFFFF2104
(1606743318.726609) can0 0A4#0000000000000000
(1606743318.726837) can0 0A3#EEBDD71EEEB9071F
(1606743318.727069) can0 0A2#F0D8F0D865050000
(1606743318.727297) can0 0A1#BC0049083908F0D8
(1606743318.727531) can0 0A0#CD00D000CF00B900
(1606743318.732783) can0 0AF#1804000000000000
(1606743318.733029) can0 0AD#4000000000000000
(1606743318.733275) can0 0AC#00000000D2010000
(1606743318.733525) can0 0AB#0000000000000040
(1606743318.733767) can0 0AA#0700090000008001
(1606743318.734007) can0 0A8#2200ABE903000000
(1606743318.734251) can0 0A7#1B000000FDFFF5FF
(1606743318.734499) can0 0A6#0000020002000000
(1606743318.734731) can0 0A5#5306F5FFEDFF1E04
(1606743318.734981) can0 0A4#0000000000000000
(1606743318.735209) can0 0A3#EEB9D71EEEBD071F
(1606743318.741775) can0 0AF#18058E0400000000
(1606743318.742021) can0 0AD#2700000000000000
(1606743318.742267) can0 0AC#00000000D5010000
(1606743318.742517) can0 0AB#0000000000000040
(1606743318.742759) can0 0AA#0700090000008001
(1606743318.742999) can0 0A8#2200ABE9FEFF0100
(1606743318.743245) can0 0A7#180000000000F3FF
(1606743318.743487) can0 0A6#FEFF0000FAFF0000
(1606743318.743721) can0 0A5#5D06FAFFF5FF1E04
(1606743318.743971) can0 0A4#0000000000000000
(1606743318.744218) can0 002#0000323B00000000
(1606743318.744446) can0 0A3#EEB9D71EEEBD071F
(1606743318.750774) can0 0AF#19000D020D02F0EE
(1606743318.751020) can0 0AD#2100000000000000
(1606743318.751270) can0 0AC#00000000D8010000
(1606743318.751520) can0 0AB#0000000000000040
(1606743318.751758) can0 0AA#0700090800008001
(1606743318.752000) can0 0A8#2200ABE900000000
(1606743318.752242) can0 0A7#18000000FAFFF9FF
(1606743318.752492) can0 0A6#0000000000000000
(1606743318.752726) can0 0A5#4706F9FFF4FF1B04
(1606743318.752976) can0 0A4#0000000000000000
(1606743318.753204) can0 0A3#EEB9D71EEEBD071F
(1606743318.756830) can0 01C#0000000001000000
(1606743318.759775) can0 0AF#1901F0EE97FFA3FF
(1606743318.760020) can0 0AD#2100000000000000
(1606743318.760268) can0 0AC#0000FFFFDB010000
(1606743318.760518) can0 0AB#0000000000000040
(1606743318.760756) can0 0AA#0700090800008001
(1606743318.760998) can0 0A8#2200ABE90800FDFF
(1606743318.761240) can0 0A7#19000000FDFFF9FF
(1606743318.761482) can0 0A6#05000200FAFF0000
(1606743318.761722) can0 0A5#3F06F8FFF2FF1104
(1606743318.761972) can0 0A4#0000000000000000
(1606743318.762200) can0 0A3#EEB9D71EEEBD071F
(1606743318.768303) can0 079#0000000000000000
(1606743318.768771) can0 0AF#19028EFF1B000000
(1606743318.769019) can0 0AD#1F00000000000000
(1606743318.769265) can0 0AC#00000000DE010000
(1606743318.769516) can0 0AB#0000000000000040
(1606743318.769753) can0 0AA#0700090800008001
(1606743318.769993) can0 0A8#2200ABE903000000
(1606743318.770235) can0 0A7#1A0000000200FEFF
(1606743318.770483) can0 0A6#00000200FDFF0000
(1606743318.770723) can0 0A5#4C06000000001304
(1606743318.770973) can0 0A4#0000000000000000
(1606743318.771199) can0 0A3#EEB9D71EEEB9071F
(1606743318.771450) can0 0C0#0000000001000000
(1606743318.772801) can0 037#0000C25E00000301
(1606743318.777775) can0 0AF#1903000001000000
(1606743318.778021) can0 0AD#1D00000000000000
(1606743318.778265) can0 0AC#00000100E1010000
(1606743318.778517) can0 0AB#0000000000000040
(1606743318.778753) can0 0AA#0700090800008001
(1606743318.778995) can0 0A8#2200ABE9FFFF0100
(1606743318.779241) can0 0A7#19000000FDFFFEFF
(1606743318.779487) can0 0A6#FEFF000000000000
(1606743318.779725) can0 0A5#70060E0016000A04
(1606743318.779975) can0 0A4#0000000000000000
(1606743318.780203) can0 0A3#EDB9D71EEEBD071F
(1606743318.786925) can0 0AF#1904000000000000
(1606743318.787171) can0 0AD#0300000000000000
(1606743318.787417) can0 0AC#00000000E4010000
(1606743318.787667) can0 0AB#0000000000000040
(1606743318.787905) can0 0AA#0700090800008001
(1606743318.788143) can0 0A8#2200ABE9F6FF0100
(1606743318.788387) can0 0A7#16000000FFFFF9FF
(1606743318.788633) can0 0A6#FBFFFBFF02000000
(1606743318.788871) can0 0A5#2F06FCFFF8FF0204
(1606743318.789121) can0 0A4#0000000000000000
(1606743318.789347) can0 0A3#EEB9D71EEEBDF71E
(1606743318.795775) can0 0AF#19058E0400000000
(1606743318.796019) can0 0AD#5D00000000000000
(1606743318.796265) can0 0AC#0000FFFFE7010000
(1606743318.796515) can0 0AB#0000000000000040
(1606743318.796753) can0 0AA#0700090800008001
(1606743318.796997) can0 0A8#2200ABE90000FDFF
(1606743318.797245) can0 0A7#1B000000FFFFFCFF
(1606743318.797487) can0 0A6#0200FEFFFCFF0000
(1606743318.797721) can0 0A5#A10617002600FE03
(1606743318.797971) can0 0A4#0000000000000000
(1606743318.798197) can0 0A3#EEB9D71EEEBDF71E
(1606743318.804829) can0 0AF#1A000D020D02F1EE
(1606743318.805077) can0 0AD#3E00000000000000
(1606743318.805325) can0 0AC#00000000EA010000
(1606743318.805575) can0 0AB#0000000000000040
(1606743318.805813) can0 0AA#0700090800008001
(1606743318.806055) can0 0A8#2200ABE904000000
(1606743318.806299) can0 0A7#16000000F8FFF7FF
(1606743318.806543) can0 0A6#00000300FDFF0000
(1606743318.806781) can0 0A5#4806FFFFFEFFFD03
(1606743318.807031) can0 0A4#0000000000000000
(1606743318.807259) can0 0A3#EEB9D71EEEBD071F
(1606743318.813829) can0 0AF#1A01F0EE91FF9DFF
(1606743318.814079) can0 0AD#0800000000000000
(1606743318.814325) can0 0AC#0000FFFFED010000
(1606743318.814575) can0 0AB#0000000000000040
(1606743318.814813) can0 0AA#0700090800008001
(1606743318.815053) can0 0A8#2200ABE90300FEFF
(1606743318.815301) can0 0A7#1B0000000000F7FF
(1606743318.815545) can0 0A6#02000000FAFF0000
(1606743318.815783) can0 0A5#5B06FFFFFEFF0304
(1606743318.816033) can0 0A4#0000000000000000
(1606743318.816259) can0 0A3#EEB9D71EEEB9071F
(1606743318.822827) can0 0AF#1A02A8FF19000000
(1606743318.823065) can0 0AE#1000B41911051820
(1606743318.823309) can0 0AD#5900000000000000
(1606743318.823559) can0 0AC#0000FFFFF0010000
(1606743318.823809) can0 0AB#0000000000000040
(1606743318.824047) can0 0AA#0700090800008001
(1606743318.824281) can0 0A9#9700FB00FF018904
(1606743318.824521) can0 0A8#2200ABE90300FEFF
(1606743318.824767) can0 0A7#1A000000FFFFFEFF
(1606743318.825013) can0 0A6#0200000000000000
(1606743318.825251) can0 0A5#2B06F3FFEAFFFA03
(1606743318.825501) can0 0A4#0000000000000000
(1606743318.825727) can0 0A3#EEB9D71EEEB9071F
(1606743318.825959) can0 0A2#F0D8F0D865050000
(1606743318.826189) can0 0A1#B80049083908F0D8
(1606743318.826429) can0 0A0#CD00D000D000B800
(1606743318.831833) can0 0AF#1A03000001000000
(1606743318.832079) can0 0AD#1100000000000000
(1606743318.832325) can0 0AC#00000100F3010000
(1606743318.832575) can0 0AB#0000000000000040
(1606743318.832813) can0 0AA#0700090800008001
(1606743318.833055) can0 0A8#2200ABE9FFFF0100
(1606743318.833297) can0 0A7#15000000FDFFF0FF
(1606743318.833537) can0 0A6#FEFF0000F4FF0000
(1606743318.833777) can0 0A5#790605000800FE03
(1606743318.834027) can0 0A4#0000000000000000
(1606743318.834255) can0 0A3#EEB9D71EEEBD071F
(1606743318.840835) can0 0AF#1A04000000000000
(1606743318.841081) can0 0AD#3600000000000000
(1606743318.841329) can0 0AC#00000000F6010000
(1606743318.841579) can0 0AB#0000000000000040
(1606743318.841817) can0 0AA#0700090800008001
(1606743318.842059) can0 0A8#2200ABE9FFFF0100
(1606743318.842301) can0 0A7#19000000FDFFF9FF
(1606743318.842547) can0 0A6#FEFF000000000000
(1606743318.842783) can0 0A5#6E0607000B00F503
(1606743318.843033) can0 0A4#0000000000000000
(1606743318.843280) can0 002#0000323B00000000
(1606743318.843508) can0 0A3#EEB9D71EEEBD071F
(1606743318.849922) can0 0AF#1A058E0400000000
(1606743318.850168) can0 0AD#0400000000000000
(1606743318.850416) can0 0AC#00000100F9010000
(1606743318.850666) can0 0AB#0000000000000040
(1606743318.850904) can0 0AA#0700090800008001
(1606743318.851144) can0 0A8#2200ABE901000200
(1606743318.851386) can0 0A7#19000000FDFFF9FF
(1606743318.851632) can0 0A6#FEFF020002000000
(1606743318.851870) can0 0A5#5206F6FFF4FFFF03
(1606743318.852121) can0 0A4#0000000000000000
(1606743318.852346) can0 0A3#EEB9D71EEEB9071F
(1606743318.858438) can0 01C#0000000001000000
(1606743318.858831) can0 0AF#1B000D020D02F0EE
(1606743318.859074) can0 0AD#8F00000000000000
(1606743318.859324) can0 0AC#00000000FC010000
(1606743318.859574) can0 0AB#0000000000000040
(1606743318.859812) can0 0AA#0700090800008001
(1606743318.860054) can0 0A8#2200ABE9FBFF0000
(1606743318.860296) can0 0A7#19000000FFFFFCFF
(1606743318.860540) can0 0A6#0200020008000000
(1606743318.860778) can0 0A5#1406F6FFEFFFF803
(1606743318.861028) can0 0A4#0000000000000000
(1606743318.861256) can0 0A3#EEB9D71EEEBD071F
(1606743318.867829) can0 0AF#1B01F0EE94FFA6FF
(1606743318.868075) can0 0AD#0700000000000000
(1606743318.868323) can0 0AC#00000000FF010000
(1606743318.868572) can0 0AB#0000000000000040
(1606743318.868811) can0 0AA#0700090800008001
(1606743318.869062) can0 079#0000000000000000
(1606743318.869304) can0 0A8#2200ABE900000000
(1606743318.869550) can0 0A7#1A000000FAFFF9FF
(1606743318.869800) can0 0A6#0000000000000000
(1606743318.870040) can0 0A5#340602000300F303
(1606743318.870290) can0 0A4#0000000000000000
(1606743318.870518) can0 0A3#EEB9D71EEEBD071F
(1606743318.876828) can0 0AF#1B028EFF19000000
(1606743318.877074) can0 0AD#2600000000000000
(1606743318.877319) can0 0AC#0000FFFF02020000
(1606743318.877569) can0 0AB#0000000000000040
(1606743318.877807) can0 0AA#0700090800008001
(1606743318.878047) can0 0A8#2200ABE90200FEFF
(1606743318.878291) can0 0A7#14000000F6FF0000
(1606743318.878537) can0 0A6#0200000002000000
(1606743318.878775) can0 0A5#3E0601000200EB03
(1606743318.879025) can0 0A4#0000000000000000
(1606743318.879253) can0 0A3#EEB9D71EEEBD071F
(1606743318.879505) can0 0C0#0000000001000000
(1606743318.881133) can0 037#0000C35E00000301
(1606743318.885837) can0 0AF#1B03000001000000
(1606743318.886085) can0 0AD#3800000000000000
(1606743318.886335) can0 0AC#0000000005020000
(1606743318.886585) can0 0AB#0000000000000040
(1606743318.886823) can0 0AA#0700090800008001
(1606743318.887063) can0 0A8#2200ABE9FEFF0100
(1606743318.887309) can0 0A7#1F0000000000E8FF
(1606743318.887553) can0 0A6#FEFF0000FDFF0000
(1606743318.887793) can0 0A5#4B06FDFFF9FFF003
(1606743318.888043) can0 0A4#0000000000000000
(1606743318.888271) can0 0A3#EEB9D71EEEBD071F
(1606743318.894837) can0 0AF#1B04000000000000
(1606743318.895083) can0 0AD#4600000000000000
(1606743318.895329) can0 0AC#0000020008020000
(1606743318.895579) can0 0AB#0000000000000040
(1606743318.895817) can0 0AA#0700090800008001
(1606743318.896065) can0 0A8#2200ABE9FFFF0400
(1606743318.896307) can0 0A7#1D000000FDFFEEFF
(1606743318.896549) can0 0A6#FBFF0200FDFF0000
(1606743318.896789) can0 0A5#3006FFFF0000E803
(1606743318.897039) can0 0A4#0000000000000000
(1606743318.897267) can0 0A3#EEB9D71EEEBD071F
(1606743318.903831) can0 0AF#1B058E0400000000
(1606743318.904079) can0 0AD#3100000000000000
(1606743318.904327) can0 0AC#000000000B020000
(1606743318.904577) can0 0AB#0000000000000040
(1606743318.904819) can0 0AA#0700090000008001
(1606743318.905061) can0 0A8#2200ABE900000000
(1606743318.905303) can0 0A7#19000000FAFFFCFF
(1606743318.905551) can0 0A6#00000000FDFF0000
(1606743318.905789) can0 0A5#2A0602000100E903
(1606743318.906039) can0 0A4#0000000000000000
(1606743318.906267) can0 0A3#EEB9D71EEEBD071F
(1606743318.912975) can0 0AF#1C000D020D02F0EE
(1606743318.913225) can0 0AD#2000000000000000
(1606743318.913465) can0 0AC#0000FDFF0E020000
(1606743318.913715) can0 0AB#0000000000000040
(1606743318.913957) can0 0AA#0700090000008001
(1606743318.914193) can0 0A8#2200ABE90A00FAFF
(1606743318.914437) can0 0A7#1A000000FAFFF3FF
(1606743318.914685) can0 0A6#0800020000000000
(1606743318.914921) can0 0A5#600610001B00E703
(1606743318.915171) can0 0A4#0000000000000000
(1606743318.915399) can0 0A3#EEB9D71EEEBD071F
(1606743318.921829) can0 0AF#1C01F0EE9AFFA6FF
(1606743318.922067) can0 0AE#1000B41911051820
(1606743318.922313) can0 0AD#2600000000000000
(1606743318.922561) can0 0AC#0000000011020000
(1606743318.922811) can0 0AB#0000000000000040
(1606743318.923053) can0 0AA#0700090000008001
(1606743318.923289) can0 0A9#9700FB00FF018504
(1606743318.923529) can0 0A8#2200ABE903000000
(1606743318.923773) can0 0A7#1A000000FDFFF9FF
(1606743318.924023) can0 0A6#0000020005000000
(1606743318.924261) can0 0A5#0B06F7FFF1FFEA03
(1606743318.924511) can0 0A4#0000000000000000
(1606743318.924739) can0 0A3#EDB9D71EEFBD071F
(1606743318.924971) can0 0A2#F0D8F0D865050000
(1606743318.925197) can0 0A1#B90049083908F0D8
(1606743318.925433) can0 0A0#CD00D000D000B900
(1606743318.930831) can0 0AF#1C0290FF18000000
(1606743318.931077) can0 0AD#3300000000000000
(1606743318.931326) can0 0AC#0000000014020000
(1606743318.931575) can0 0AB#0000000000000040
(1606743318.931817) can0 0AA#0700090000008001
(1606743318.932057) can0 0A8#2200ABE9FEFF0100
(1606743318.932301) can0 0A7#14000000FAFF0000
(1606743318.932543) can0 0A6#FEFF0000FAFF0000
(1606743318.932781) can0 0A5#2E06FDFFFBFFEA03
(1606743318.933031) can0 0A4#0000000000000000
(1606743318.933261) can0 0A3#EEB9D71EEFBD071F
(1606743318.939835) can0 0AF#1C03000001000000
(1606743318.940081) can0 0AD#0300000000000000
(1606743318.940327) can0 0AC#0000000017020000
(1606743318.940577) can0 0AB#0000000000000040
(1606743318.940819) can0 0AA#0700090000008001
(1606743318.941059) can0 0A8#2200ABE903000000
(1606743318.941305) can0 0A7#180000000000F9FF
(1606743318.941553) can0 0A6#00000200FDFF0000
(1606743318.941795) can0 0A5#3106FCFFF9FFE803
(1606743318.942045) can0 0A4#0000000000000000
(1606743318.942273) can0 0A3#EEB9D71EEEBD071F
(1606743318.945204) can0 002#0000323B00000000
(1606743318.948832) can0 0AF#1C04000000000000
(1606743318.949078) can0 0AD#2B00000000000000
(1606743318.949324) can0 0AC#000000001A020000
(1606743318.949574) can0 0AB#0000000000000040
(1606743318.949816) can0 0AA#0700090000008001
(1606743318.950056) can0 0A8#2200ABE903000000
(1606743318.950302) can0 0A7#16000000FDFFFCFF
(1606743318.950550) can0 0A6#0000020000000000
(1606743318.950786) can0 0A5#5A0601000000EF03
(1606743318.951036) can0 0A4#0000000000000000
(1606743318.951264) can0 0A3#EDB9D71EEEBD071F
(1606743318.957824) can0 0AF#1C058E0400000000
(1606743318.958068) can0 0AD#7600000000000000
(1606743318.958314) can0 0AC#000000001D020000
(1606743318.958564) can0 0AB#0000000000000040
(1606743318.958806) can0 0AA#0700090000008001
(1606743318.959048) can0 0A8#2200ABE900000000
(1606743318.959290) can0 0A7#1B000000FDFFFCFF
(1606743318.959538) can0 0A6#00000000FDFF0000
(1606743318.959770) can0 0A5#B305D6FFBAFFE803
(1606743318.960020) can0 0A4#0000000000000000
(1606743318.960246) can0 0A3#EDB9D71EEEB9071F
(1606743318.960499) can0 01C#0000000001000000
(1606743318.966822) can0 0AF#1D000D020D02F0EE
(1606743318.967068) can0 0AD#9300000000000000
(1606743318.967316) can0 0AC#0000000020020000
(1606743318.967566) can0 0AB#0000000000000040
(1606743318.967808) can0 0AA#0700090000008001
(1606743318.968051) can0 0A8#2200ABE9FDFFFEFF
(1606743318.968295) can0 0A7#1B000000FFFFF9FF
(1606743318.968543) can0 0A6#0000FDFF02000000
(1606743318.968778) can0 0A5#ED0503000500E903
(1606743318.969028) can0 0A4#0000000000000000
(1606743318.969253) can0 0A3#EEB9D71EEEB9071F
(1606743318.971599) can0 079#0000000000000000
(1606743318.975973) can0 0AF#1D01F0EE91FFA0FF
(1606743318.976217) can0 0AD#4B00000000000000
(1606743318.976463) can0 0AC#0000000023020000
(1606743318.976713) can0 0AB#0000000000000040
(1606743318.976955) can0 0AA#0700090000008001
(1606743318.977197) can0 0A8#2200ABE902000000
(1606743318.977437) can0 0A7#19000000FDFFF5FF
(1606743318.977685) can0 0A6#00000200FDFF0000
(1606743318.977925) can0 0A5#C505FFFFFEFFE003
(1606743318.978175) can0 0A4#0000000000000000
(1606743318.978403) can0 0A3#EEB9D71EEEBD071F
(1606743318.984819) can0 0AF#1D0290FF1A000000
(1606743318.985063) can0 0AD#5A00000000000000
(1606743318.985309) can0 0AC#0000000026020000
(1606743318.985559) can0 0AB#0000000000000040
(1606743318.985801) can0 0AA#0700090000008001
(1606743318.986041) can0 0A8#2200ABE90200FEFF
(1606743318.986283) can0 0A7#190000000600F7FF
(1606743318.986529) can0 0A6#0200000000000000
(1606743318.986767) can0 0A5#B5050000FFFFC203
(1606743318.987017) can0 0A4#0000000000000000
(1606743318.987245) can0 0A3#EEB9D71EEEBD071F
