(1606743224.901186) can0 0AF#06000D020D02BBED
(1606743224.901433) can0 0AD#0E00000000000000
(1606743224.901683) can0 0AC#0000010082000000
(1606743224.901933) can0 0AB#0000000000000040
(1606743224.902174) can0 0AA#0700090000008001
(1606743224.902412) can0 0A8#2200ABE9E6FF0300
(1606743224.902654) can0 0A7#19000000FAFFFCFF
(1606743224.902892) can0 0A6#F4FFF2FFF6FF0000
(1606743224.903129) can0 0A5#5206FFFFFEFFCCB7
(1606743224.903378) can0 0A4#0000000000000000
(1606743224.903602) can0 0A3#EEBDD71EEEB9F71E
(1606743224.910245) can0 0AF#0601BAED97FFA3FF
(1606743224.910482) can0 0AE#1000B41911051820
(1606743224.910726) can0 0AD#4F00000000000000
(1606743224.910974) can0 0AC#0000000085000000
(1606743224.911224) can0 0AB#0000000000000040
(1606743224.911467) can0 0AA#0700090000008001
(1606743224.911704) can0 0A9#9700FB00FF019804
(1606743224.911945) can0 0A8#2200ABE9F0FF0100
(1606743224.912186) can0 0A7#1B0000000B00F5FF
(1606743224.912426) can0 0A6#FBFFF6FFF6FF0000
(1606743224.912666) can0 0A5#7D060300040002BC
(1606743224.912917) can0 0A4#0000000000000000
(1606743224.913141) can0 0A3#EEBDD71EEEB9F71E
(1606743224.913372) can0 0A2#F0D8F0D865050000
(1606743224.913603) can0 0A1#B40049083908F0D8
(1606743224.913842) can0 0A0#CE00D000D000B100
(1606743224.915540) can0 002#0000323B00000000
(1606743224.919182) can0 0AF#060290FF16000000
(1606743224.919430) can0 0AD#0A00000000000000
(1606743224.919676) can0 0AC#0000020088000000
(1606743224.919926) can0 0AB#0000000000000040
(1606743224.920169) can0 0AA#0700090000008001
(1606743224.920408) can0 0A8#2200ABE9ECFF0500
(1606743224.920655) can0 0A7#190000000000F7FF
(1606743224.920908) can0 01C#0000000001000000
(1606743224.921146) can0 0A6#F6FFF6FFF6FF0000
(1606743224.921397) can0 079#0000000000000000
(1606743224.921633) can0 0A5#6806F9FFF5FFF2BF
(1606743224.921883) can0 0A4#0000000000000000
(1606743224.922107) can0 0A3#EEB9D71EEEB9F71E
(1606743224.928185) can0 0AF#0603000001000000
(1606743224.928431) can0 0AD#0600000000000000
(1606743224.928677) can0 0AC#000002008B000000
(1606743224.928927) can0 0AB#0000000000000040
(1606743224.929169) can0 0AA#0700090000008001
(1606743224.929407) can0 0A8#2200ABE9EBFF0300
(1606743224.929651) can0 0A7#1B000000FFFFF7FF
(1606743224.929891) can0 0A6#F6FFF4FFF7FF0000
(1606743224.930125) can0 0A5#6E06F9FFF5FFADC3
(1606743224.930375) can0 0A4#0000000000000000
(1606743224.930599) can0 0A3#EEB9D71EEEB9F71E
(1606743224.937187) can0 0AF#0604000000000000
(1606743224.937435) can0 0AD#2200000000000000
(1606743224.937683) can0 0AC#000004008E000000
(1606743224.937933) can0 0AB#0000000000000040
(1606743224.938175) can0 0AA#0700090000008001
(1606743224.938413) can0 0A8#2200ABE9EDFF0800
(1606743224.938657) can0 0A7#1B000000FFFFF7FF
(1606743224.938897) can0 0A6#F4FFF7FFF8FF0000
(1606743224.939135) can0 0A5#9A06040007003AC7
(1606743224.939385) can0 0A4#0000000000000000
(1606743224.939608) can0 0A3#EEB9D71EEEB9F71E
(1606743224.946180) can0 0AF#06059A0400000000
(1606743224.946427) can0 0AD#0400000000000000
(1606743224.946670) can0 0AC#0000020091000000
(1606743224.946921) can0 0AB#0000000000000040
(1606743224.947162) can0 0AA#0700090000008001
(1606743224.947404) can0 0A8#2200ABE9F3FF0500
(1606743224.947646) can0 0A7#1B000000FDFFFCFF
(1606743224.947886) can0 0A6#F7FFFBFFF0FF0000
(1606743224.948122) can0 0A5#7C06FAFFF6FF98CA
(1606743224.948372) can0 0A4#0000000000000000
(1606743224.948597) can0 0A3#EEB9D71EEEB9F71E
(1606743224.955328) can0 0AF#07000D020D0213EE
(1606743224.955579) can0 0AD#0800000000000000
(1606743224.955824) can0 0AC#0000020094000000
(1606743224.956074) can0 0AB#0000000000000040
(1606743224.956316) can0 0AA#0700090000008001
(1606743224.956559) can0 0A8#2200ABE9F0FF0300
(1606743224.956800) can0 0A7#19000000FDFFF7FF
(1606743224.957040) can0 0A6#F8FFF8FFF0FF0000
(1606743224.957274) can0 0A5#6706F6FFEFFFCACD
(1606743224.957524) can0 0A4#0000000000000000
(1606743224.957748) can0 0A3#EEB9D71EEEB9F71E
(1606743224.964242) can0 0AF#070113EE97FFA1FF
(1606743224.964488) can0 0AD#2500000000000000
(1606743224.964734) can0 0AC#0000020097000000
(1606743224.964984) can0 0AB#0000000000000040
(1606743224.965226) can0 0AA#0700090000008001
(1606743224.965464) can0 0A8#2200ABE9F5FF0500
(1606743224.965708) can0 0A7#1D000000F8FFF9FF
(1606743224.965948) can0 0A6#F8FFFBFFF6FF0000
(1606743224.966182) can0 0A5#7A06FEFFFDFFC6D0
(1606743224.966433) can0 0A4#0000000000000000
(1606743224.966656) can0 0A3#EEB9D71EEEB9F71E
(1606743224.971345) can0 037#0000C35F00000301
(1606743224.971943) can0 0C0#0000000001000000
(1606743224.973244) can0 0AF#070293FF1B000000
(1606743224.973488) can0 0AD#4700000000000000
(1606743224.973734) can0 0AC#000005009A000000
(1606743224.973983) can0 0AB#0000000000000040
(1606743224.974225) can0 0AA#0700090000008001
(1606743224.974464) can0 0A8#2200ABE9F1FF0A00
(1606743224.974705) can0 0A7#19000000FDFFF9FF
(1606743224.974947) can0 0A6#F3FFFCFFF3FF0000
(1606743224.975186) can0 0A5#99060000000094D3
(1606743224.975435) can0 0A4#0000000000000000
(1606743224.975662) can0 0A3#EEB9E71EEEB9071F
(1606743224.982243) can0 0AF#0703000001000000
(1606743224.982491) can0 0AD#2200000000000000
(1606743224.982737) can0 0AC#0000FFFF9D000000
(1606743224.982987) can0 0AB#0000000000000040
(1606743224.983229) can0 0AA#0700090000008001
(1606743224.983469) can0 0A8#2200ABE9E8FFFEFF
(1606743224.983719) can0 0A7#1B0000000000F9FF
(1606743224.983957) can0 0A6#FCFFEDFF0D000000
(1606743224.984189) can0 0A5#7A06FEFFFDFF4BD6
(1606743224.984439) can0 0A4#0000000000000000
(1606743224.984665) can0 0A3#EEB9E71EEEB9071F
(1606743224.991245) can0 0AF#0704000000000000
(1606743224.991493) can0 0AD#3800000000000000
(1606743224.991741) can0 0AC#00000300A0000000
(1606743224.991991) can0 0AB#0000000000000040
(1606743224.992235) can0 0AA#0700090000008001
(1606743224.992475) can0 0A8#2200ABE9F3FF0300
(1606743224.992718) can0 0A7#19000000FDFFF9FF
(1606743224.992957) can0 0A6#F9FFFAFFFDFF0000
(1606743224.993195) can0 0A5#830608000C00D6D8
(1606743224.993445) can0 0A4#0000000000000000
(1606743224.993669) can0 0A3#EEB9D71EEEB9F71E
(1606743225.000243) can0 0AF#07059A0400000000
(1606743225.000490) can0 0AD#8200000000000000
(1606743225.000738) can0 0AC#00000200A3000000
(1606743225.000988) can0 0AB#0000000000000040
(1606743225.001229) can0 0AA#0700090000008001
(1606743225.001469) can0 0A8#2200ABE9F8FF0400
(1606743225.001713) can0 0A7#1A000000FFFFF5FF
(1606743225.001957) can0 0A6#FAFFFAFFFBFF0000
(1606743225.002193) can0 0A5#A706FDFFFBFF3EDB
(1606743225.002443) can0 0A4#0000000000000000
(1606743225.002669) can0 0A3#EEB9D71EEEBDF71E
(1606743225.009243) can0 0AF#08000D020D0213EE
(1606743225.009482) can0 0AE#1000B41911051820
(1606743225.009729) can0 0AD#0D00000000000000
(1606743225.009977) can0 0AC#00000000A6000000
(1606743225.010228) can0 0AB#0000000000000040
(1606743225.010470) can0 0AA#0700090000008001
(1606743225.010703) can0 0A9#9700FB00FF019A04
(1606743225.010944) can0 0A8#2200ABE9F4FF0000
(1606743225.011185) can0 0A7#19000000FAFFF9FF
(1606743225.011427) can0 0A6#FAFFFDFFFBFF0000
(1606743225.011662) can0 0A5#9106FAFFF6FF86DD
(1606743225.011911) can0 0A4#0000000000000000
(1606743225.012137) can0 0A3#EEB9D71EEEBDF71E
(1606743225.012369) can0 0A2#F0D8F0D865050000
(1606743225.012596) can0 0A1#B30049083908F0D8
(1606743225.012831) can0 0A0#CD00D000D000B100
(1606743225.014204) can0 002#0000323B00000000
(1606743225.018328) can0 0AF#080113EE97FFA6FF
(1606743225.018574) can0 0AD#0E00000000000000
(1606743225.018820) can0 0AC#00000300A9000000
(1606743225.019070) can0 0AB#0000000000000040
(1606743225.019312) can0 0AA#0700090000008001
(1606743225.019552) can0 0A8#2200ABE9F0FF0500
(1606743225.019794) can0 0A7#15000000FDFF0100
(1606743225.020036) can0 0A6#F8FFF8FFFCFF0000
(1606743225.020270) can0 0A5#B60607000F00B2DF
(1606743225.020520) can0 0A4#0000000000000000
(1606743225.020744) can0 0A3#EEB9D71EEEB9F71E
(1606743225.022712) can0 01C#0000000001000000
(1606743225.023931) can0 079#0000000000000000
(1606743225.027238) can0 0AF#080290FF1C000000
(1606743225.027487) can0 0AD#1600000000000000
(1606743225.027732) can0 0AC#00000200AC000000
(1606743225.027982) can0 0AB#0000000000000040
(1606743225.028220) can0 0AA#0700090800008001
(1606743225.028458) can0 0A8#2200ABE9F4FF0500
(1606743225.028698) can0 0A7#19000000F6FFFCFF
(1606743225.028942) can0 0A6#FBFFFBFFF0FF0000
(1606743225.029178) can0 0A5#9A0601000100AFE1
(1606743225.029428) can0 0A4#0000000000000000
(1606743225.029652) can0 0A3#EEB9D71EEEB9F71E
(1606743225.036242) can0 0AF#0803000001000000
(1606743225.036490) can0 0AD#2300000000000000
(1606743225.036734) can0 0AC#00000200AF000000
(1606743225.036984) can0 0AB#0000000000000040
(1606743225.037222) can0 0AA#0700090800008001
(1606743225.037464) can0 0A8#2200ABE9F7FF0500
(1606743225.037710) can0 0A7#1A000000F8FFF5FF
(1606743225.037952) can0 0A6#F8FFFEFFFAFF0000
(1606743225.038182) can0 0A5#5706F1FFE6FF9AE3
(1606743225.038432) can0 0A4#0000000000000000
(1606743225.038656) can0 0A3#EEB9D71EEEB9F71E
(1606743225.045246) can0 0AF#0804000000000000
(1606743225.045492) can0 0AD#2B00000000000000
(1606743225.045740) can0 0AC#00000100B2000000
(1606743225.045990) can0 0AB#0000000000000040
(1606743225.046228) can0 0AA#0700090800008001
(1606743225.046468) can0 0A8#2200ABE9FAFF0200
(1606743225.046712) can0 0A7#19000000F8FFFEFF
(1606743225.046956) can0 0A6#FBFFFEFFFDFF0000
(1606743225.047188) can0 0A5#5506F5FFECFF6BE5
(1606743225.047438) can0 0A4#0000000000000000
(1606743225.047662) can0 0A3#EEB9D71EEEB9F71E
(1606743225.054242) can0 0AF#08059A0400000000
(1606743225.054488) can0 0AD#4A00000000000000
(1606743225.054738) can0 0AC#00000000B5000000
(1606743225.054988) can0 0AB#0000000000000040
(1606743225.055226) can0 0AA#0700090800008001
(1606743225.055468) can0 0A8#2200ABE9F8FF0100
(1606743225.055716) can0 0A7#1900000000000100
(1606743225.055960) can0 0A6#FBFFFBFFF8FF0000
(1606743225.056196) can0 0A5#4D06F9FFF4FF14E7
(1606743225.056446) can0 0A4#0000000000000000
(1606743225.056670) can0 0A3#EEB9D71EEEB9F71E
(1606743225.063240) can0 0AF#09000D020D0213EE
(1606743225.063487) can0 0AD#9200000000000000
(1606743225.063734) can0 0AC#00000100B8000000
(1606743225.063984) can0 0AB#0000000000000040
(1606743225.064222) can0 0AA#0700090800008001
(1606743225.064464) can0 0A8#2200ABE9FBFF0100
(1606743225.064706) can0 0A7#1B000000FDFFF9FF
(1606743225.064950) can0 0A6#FCFFFFFF00000000
(1606743225.065182) can0 0A5#1206F5FFEEFFAAE8
(1606743225.065432) can0 0A4#0000000000000000
(1606743225.065658) can0 0A3#EEB9D71EEEB9071F
(1606743225.072239) can0 0AF#090113EE94FFA6FF
(1606743225.072484) can0 0AD#2C00000000000000
(1606743225.072728) can0 0AC#00000200BB000000
(1606743225.072978) can0 0AB#0000000000000040
(1606743225.073216) can0 0AA#0700090800008001
(1606743225.073454) can0 0A8#2200ABE9FCFF0500
(1606743225.073696) can0 0A7#1D000000F8FFEAFF
(1606743225.073936) can0 0A6#F9FF0100EFFF0000
(1606743225.074170) can0 0A5#3806FEFFFDFF26EA
(1606743225.074420) can0 0A4#0000000000000000
(1606743225.074646) can0 0A3#EEB9D71EEEB9071F
(1606743225.080665) can0 037#0000C25E00000301
(1606743225.081264) can0 0C0#0000000001000000
(1606743225.081504) can0 0AF#090293FF1D000000
(1606743225.081752) can0 0AD#2E00000000000000
(1606743225.082004) can0 0AC#00000000BE000000
(1606743225.082254) can0 0AB#0000000000000040
(1606743225.082492) can0 0AA#0700090800008001
(1606743225.082734) can0 0A8#2200ABE9F3FF0100
(1606743225.082976) can0 0A7#19000000F8FFF7FF
(1606743225.083218) can0 0A6#F9FFF9FF00000000
(1606743225.083454) can0 0A5#2E06F8FFF3FF95EB
(1606743225.083704) can0 0A4#0000000000000000
(1606743225.083930) can0 0A3#EEB9D71EEEB9071F
(1606743225.090242) can0 0AF#0903000001000000
(1606743225.090488) can0 0AD#2600000000000000
(1606743225.090738) can0 0AC#00000000C1000000
(1606743225.090988) can0 0AB#0000000000000040
(1606743225.091226) can0 0AA#0700090800008001
(1606743225.091466) can0 0A8#2200ABE9F6FF0000
(1606743225.091712) can0 0A7#1C000000FFFF0100
(1606743225.091952) can0 0A6#FDFFFAFFF8FF0000
(1606743225.092186) can0 0A5#8D0619002900EFEC
(1606743225.092436) can0 0A4#0000000000000000
(1606743225.092664) can0 0A3#EEB9D71EEFB9071F
(1606743225.099246) can0 0AF#0904000000000000
(1606743225.099494) can0 0AD#3B00000000000000
(1606743225.099744) can0 0AC#00000000C4000000
(1606743225.099994) can0 0AB#0000000000000040
(1606743225.100232) can0 0AA#0700090800008001
(1606743225.100472) can0 0A8#2200ABE9FDFF0100
(1606743225.100720) can0 0A7#1A000000FFFFF7FF
(1606743225.100964) can0 0A6#FDFF0000FBFF0000
(1606743225.101196) can0 0A5#3806F4FFECFF2AEE
(1606743225.101446) can0 0A4#0000000000000000
(1606743225.101674) can0 0A3#EEB9D71EEFB9071F
(1606743225.108234) can0 0AF#09059A0400000000
(1606743225.108472) can0 0AE#1000B41911051820
(1606743225.108720) can0 0AD#0200000000000000
(1606743225.108966) can0 0AC#00000000C7000000
(1606743225.109216) can0 0AB#0000000000000040
(1606743225.109454) can0 0AA#0700090800008001
(1606743225.109690) can0 0A9#9700FB00FF019704
(1606743225.109934) can0 0A8#2200ABE9F7FF0000
(1606743225.110178) can0 0A7#1A0000000000F0FF
(1606743225.110420) can0 0A6#FDFFFAFFFBFF0000
(1606743225.110656) can0 0A5#4C060100010063EF
(1606743225.110906) can0 0A4#0000000000000000
(1606743225.111132) can0 0A3#EEB9D71EEEB9071F
(1606743225.111364) can0 0A2#F0D8F0D865050000
(1606743225.111590) can0 0A1#B30049083908F0D8
(1606743225.111826) can0 0A0#CD00CF00CF00B300
(1606743225.116301) can0 002#0000323B00000000
(1606743225.117237) can0 0AF#0A000D020D0213EE
(1606743225.117487) can0 0AD#2200000000000000
(1606743225.117733) can0 0AC#00000100CA000000
(1606743225.117983) can0 0AB#0000000000000040
(1606743225.118221) can0 0AA#0700090800008001
(1606743225.118461) can0 0A8#2200ABE9F8FF0300
(1606743225.118705) can0 0A7#1A000000FAFFF7FF
(1606743225.118949) can0 0A6#FAFFFDFFFEFF0000
(1606743225.119181) can0 0A5#77060B00110088F0
(1606743225.119431) can0 0A4#0000000000000000
(1606743225.119655) can0 0A3#EEB9D71EEEB9F71E
(1606743225.122546) can0 01C#0000000001000000
(1606743225.126233) can0 0AF#0A0113EE91FFA3FF
(1606743225.126479) can0 0AD#3400000000000000
(1606743225.126731) can0 079#0000000000000000
(1606743225.126975) can0 0AC#00000100CD000000
(1606743225.127225) can0 0AB#0000000000000040
(1606743225.127463) can0 0AA#0700090800008001
(1606743225.127701) can0 0A8#2200ABE9F8FF0200
(1606743225.127945) can0 0A7#1A000000FDFFF7FF
(1606743225.128191) can0 0A6#FBFFFDFFFFFF0000
(1606743225.128431) can0 0A5#3306FFFFFFFF93F1
(1606743225.128681) can0 0A4#0000000000000000
(1606743225.128907) can0 0A3#EEB9D71EEEBDF71E
(1606743225.135231) can0 0AF#0A0290FF1A000000
(1606743225.135477) can0 0AD#5C00000000000000
(1606743225.135725) can0 0AC#00000000D0000000
(1606743225.135975) can0 0AB#0000000000000040
(1606743225.136213) can0 0AA#0700090800008001
(1606743225.136455) can0 0A8#2200ABE9FBFF0000
(1606743225.136699) can0 0A7#16000000FDFFF7FF
(1606743225.136941) can0 0A6#FEFFFEFFFCFF0000
(1606743225.137173) can0 0A5#ED05F2FFE8FF8EF2
(1606743225.137423) can0 0A4#0000000000000000
(1606743225.137649) can0 0A3#EEB9D71EEEBDF71E
(1606743225.144321) can0 0AF#0A03000001000000
(1606743225.144567) can0 0AD#0A00000000000000
(1606743225.144813) can0 0AC#00000200D3000000
(1606743225.145063) can0 0AB#0000000000000040
(1606743225.145301) can0 0AA#0700090800008001
(1606743225.145544) can0 0A8#2200ABE9FEFF0400
(1606743225.145787) can0 0A7#18000000F6FFF7FF
(1606743225.146027) can0 0A6#FBFF0200F6FF0000
(1606743225.146267) can0 0A5#0F06FDFFFBFF82F3
(1606743225.146517) can0 0A4#0000000000000000
(1606743225.146745) can0 0A3#EEB9D71EEEBD071F
(1606743225.153235) can0 0AF#0A04000000000000
(1606743225.153483) can0 0AD#0D00000000000000
(1606743225.153731) can0 0AC#00000000D6000000
(1606743225.153981) can0 0AB#0000000000000040
(1606743225.154219) can0 0AA#0700090800008001
(1606743225.154461) can0 0A8#2200ABE9F8FF0000
(1606743225.154705) can0 0A7#1A000000FDFF0000
(1606743225.154949) can0 0A6#FEFFFBFF04000000
(1606743225.155189) can0 0A5#370609000F0060F4
(1606743225.155439) can0 0A4#0000000000000000
(1606743225.155667) can0 0A3#EDB9D71EEEBD071F
(1606743225.162227) can0 0AF#0A059A0400000000
(1606743225.162473) can0 0AD#4300000000000000
(1606743225.162721) can0 0AC#00000300D9000000
(1606743225.162971) can0 0AB#0000000000000040
(1606743225.163209) can0 0AA#0700090800008001
(1606743225.163449) can0 0A8#2200ABE9F9FF0500
(1606743225.163689) can0 0A7#1B000000FAFFFCFF
(1606743225.163935) can0 0A6#F8FF0000F9FF0000
(1606743225.164173) can0 0A5#3A06FEFFFDFF40F5
(1606743225.164423) can0 0A4#0000000000000000
(1606743225.164647) can0 0A3#EEB9D71EEEB9F71E
(1606743225.171287) can0 0AF#0B000D020D0213EE
(1606743225.171535) can0 0AD#0000000000000000
(1606743225.171783) can0 0AC#00000000DC000000
(1606743225.172033) can0 0AB#0000000000000040
(1606743225.172271) can0 0AA#0700090800008001
(1606743225.172513) can0 0A8#2200ABE900000000
(1606743225.172759) can0 0A7#1C000000FDFFF5FF
(1606743225.173007) can0 0A6#00000000F7FF0000
(1606743225.173245) can0 0A5#4406020002000FF6
(1606743225.173495) can0 0A4#0000000000000000
(1606743225.173719) can0 0A3#EEB9D71EEEB9F71E
(1606743225.180219) can0 0AF#0B0113EE94FF9EFF
(1606743225.180463) can0 0AD#5A00000000000000
(1606743225.180713) can0 0AC#00000000DF000000
(1606743225.180963) can0 0AB#0000000000000040
(1606743225.181205) can0 0AA#0700090000008001
(1606743225.181447) can0 0A8#2200ABE9F9FF0100
(1606743225.181687) can0 0A7#1B000000F8FFF5FF
(1606743225.181929) can0 0A6#FBFFFEFFFAFF0000
(1606743225.182167) can0 0A5#E605F0FFE5FFD2F6
(1606743225.182417) can0 0A4#0000000000000000
(1606743225.182643) can0 0A3#EEB9D71EEEB9071F
(1606743225.187742) can0 037#0000C35E00000301
(1606743225.188343) can0 0C0#0000000001000000
(1606743225.189223) can0 0AF#0B0290FF1B000000
(1606743225.189469) can0 0AD#2B00000000000000
(1606743225.189717) can0 0AC#00000000E2000000
(1606743225.189967) can0 0AB#0000000000000040
(1606743225.190209) can0 0AA#0700090000008001
(1606743225.190449) can0 0A8#2200ABE901000000
(1606743225.190691) can0 0A7#1A000000FAFFFCFF
(1606743225.190943) can0 0A6#00000000FFFF0000
(1606743225.191181) can0 0A5#DF05F4FFECFF80F7
(1606743225.191431) can0 0A4#0000000000000000
(1606743225.191659) can0 0A3#EEB9D71EEEBD071F
(1606743225.198225) can0 0AF#0B03000001000000
(1606743225.198473) can0 0AD#CC00000000000000
(1606743225.198721) can0 0AC#00000000E5000000
(1606743225.198971) can0 0AB#0000000000000040
(1606743225.199213) can0 0AA#0700090000008001
(1606743225.199453) can0 0A8#2200ABE9F9FF0000
(1606743225.199699) can0 0A7#1C000000FFFFF7FF
(1606743225.199941) can0 0A6#FBFFFEFFF9FF0000
(1606743225.200177) can0 0A5#7B05E8FFD7FF22F8
(1606743225.200427) can0 0A4#0000000000000000
(1606743225.200655) can0 0A3#EEB9D71EEEBD071F
(1606743225.207373) can0 0AF#0B04000000000000
(1606743225.207611) can0 0AE#1000B41911051820
(1606743225.207857) can0 0AD#5800000000000000
(1606743225.208105) can0 0AC#00000000E8000000
(1606743225.208355) can0 0AB#0000000000000040
(1606743225.208597) can0 0AA#0700090000008001
(1606743225.208833) can0 0A9#9700FB00FF019604
(1606743225.209075) can0 0A8#2200ABE9FCFF0000
(1606743225.209323) can0 0A7#1A000000FFFFF3FF
(1606743225.209571) can0 0A6#FEFFFEFF00000000
(1606743225.209806) can0 0A5#A10501000200B2F8
(1606743225.210057) can0 0A4#0000000000000000
(1606743225.210282) can0 0A3#EEB9D71EEEBDF71E
(1606743225.210514) can0 0A2#F0D8F0D865050000
(1606743225.210743) can0 0A1#B20049083908F0D8
(1606743225.210976) can0 0A0#CD00D000CF00B100
(1606743225.215405) can0 002#0000323B00000000
(1606743225.216218) can0 0AF#0B059A0400000000
(1606743225.216464) can0 0AD#0300000000000000
(1606743225.216711) can0 0AC#00000100EB000000
(1606743225.216961) can0 0AB#0000000000000040
(1606743225.217204) can0 0AA#0700090000008001
(1606743225.217445) can0 0A8#2200ABE9F6FF0200
(1606743225.217686) can0 0A7#1B000000F6FFF7FF
(1606743225.217929) can0 0A6#F8FFFEFF00000000
(1606743225.218165) can0 0A5#AD050500080039F9
(1606743225.218416) can0 0A4#0000000000000000
(1606743225.218641) can0 0A3#EEB9D71EEEBDF71E
(1606743225.224359) can0 01C#0000000001000000
(1606743225.225217) can0 0AF#0C000D020D0213EE
(1606743225.225463) can0 0AD#2500000000000000
(1606743225.225711) can0 0AC#00000000EE000000
(1606743225.225961) can0 0AB#0000000000000040
(1606743225.226203) can0 0AA#0700090000008001
(1606743225.226445) can0 0A8#2200ABE9FDFF0000
(1606743225.226691) can0 0A7#1C000000FFFFF7FF
(1606743225.226937) can0 0A6#FEFFFEFFF7FF0000
(1606743225.227177) can0 0A5#B405FFFFFFFFC7F9
(1606743225.227427) can0 0A4#0000000000000000
(1606743225.227655) can0 0A3#EEB9D71EEEBD071F
(1606743225.229407) can0 079#0000000000000000
(1606743225.234217) can0 0AF#0C0113EE97FFA1FF
(1606743225.234463) can0 0AD#3500000000000000
(1606743225.234711) can0 0AC#00000000F1000000
(1606743225.234961) can0 0AB#0000000000000040
(1606743225.235203) can0 0AA#0700090000008001
(1606743225.235445) can0 0A8#2200ABE902000000
(1606743225.235687) can0 0A7#1B000000FDFFF9FF
(1606743225.235937) can0 0A6#0000000000000000
(1606743225.236175) can0 0A5#AC050400060038FA
(1606743225.236425) can0 0A4#0000000000000000
(1606743225.236653) can0 0A3#EEB9D71EEEBD071F
(1606743225.243211) can0 0AF#0C0290FF19000000
(1606743225.243457) can0 0AD#2900000000000000
(1606743225.243709) can0 0AC#00000000F4000000
(1606743225.243959) can0 0AB#0000000000000040
(1606743225.244201) can0 0AA#0700090000008001
(1606743225.244441) can0 0A8#2200ABE9FAFF0000
(1606743225.244687) can0 0A7#1A000000FAFFF9FF
(1606743225.244929) can0 0A6#FCFFFEFFFDFF0000
(1606743225.245165) can0 0A5#6405EFFFE3FF9CFA
(1606743225.245415) can0 0A4#0000000000000000
(1606743225.245643) can0 0A3#EEB9D71EEEBD071F
(1606743225.252217) can0 0AF#0C03000001000000
(1606743225.252461) can0 0AD#4200000000000000
(1606743225.252711) can0 0AC#00000000F7000000
(1606743225.252961) can0 0AB#0000000000000040
(1606743225.253203) can0 0AA#0700090000008001
(1606743225.253443) can0 0A8#2200ABE9FAFF0000
(1606743225.253689) can0 0A7#1C000000FFFFF7FF
(1606743225.253933) can0 0A6#FCFFFEFFFAFF0000
(1606743225.254169) can0 0A5#7605FEFFFDFF04FB
(1606743225.254419) can0 0A4#0000000000000000
(1606743225.254645) can0 0A3#EEB9D71EEEB9071F
(1606743225.261217) can0 0AF#0C04000000000000
(1606743225.261467) can0 0AD#2F00000000000000
(1606743225.261715) can0 0AC#0000FDFFFA000000
(1606743225.261965) can0 0AB#0000000000000040
(1606743225.262207) can0 0AA#0700090000008001
(1606743225.262451) can0 0A8#2200ABE9FEFFF9FF
(1606743225.262693) can0 0A7#1C0000000000F5FF
(1606743225.262935) can0 0A6#0400F9FF0A000000
(1606743225.263171) can0 0A5#9D050600090068FB
(1606743225.263421) can0 0A4#0000000000000000
(1606743225.263646) can0 0A3#EEB9D71EEEB9071F
(1606743225.270360) can0 0AF#0C059A0400000000
(1606743225.270608) can0 0AD#0000000000000000
(1606743225.270856) can0 0AC#00000100FD000000
(1606743225.271106) can0 0AB#0000000000000040
(1606743225.271348) can0 0AA#0700090000008001
(1606743225.271588) can0 0A8#2200ABE902000300
(1606743225.271830) can0 0A7#19000000FAFFFCFF
(1606743225.272074) can0 0A6#FFFF0400FDFF0000
(1606743225.272312) can0 0A5#7E05FCFFF8FFCAFB
(1606743225.272563) can0 0A4#0000000000000000
(1606743225.272790) can0 0A3#EEB9D71EEEBD071F
(1606743225.279208) can0 0AF#0D000D020D0213EE
(1606743225.279455) can0 0AD#0300000000000000
(1606743225.279708) can0 0AC#0000000000010000
(1606743225.279959) can0 0AB#0000000000000040
(1606743225.280200) can0 0AA#0700090000008001
(1606743225.280442) can0 0A8#2200ABE9FBFF0000
(1606743225.280684) can0 0A7#19000000F8FFF7FF
(1606743225.280928) can0 0A6#FCFFFFFF00000000
(1606743225.281165) can0 0A5#A70507000B002AFC
(1606743225.281414) can0 0A4#0000000000000000
(1606743225.281642) can0 0A3#EEB9D71EEEBD071F
(1606743225.288207) can0 0AF#0D0113EE91FFA3FF
(1606743225.288452) can0 0AD#4A00000000000000
(1606743225.288700) can0 0AC#0000000003010000
(1606743225.288952) can0 0AB#0000000000000040
(1606743225.289192) can0 0AA#0700090000008001
(1606743225.289437) can0 0A8#2200ABE900000100
(1606743225.289678) can0 0A7#1B000000FAFFF9FF
(1606743225.289923) can0 0A6#FFFF0100FAFF0000
(1606743225.290158) can0 0A5#B705FDFFFBFF8CFC
(1606743225.290408) can0 0A4#0000000000000000
(1606743225.290636) can0 0A3#EEB9D71EEEBD071F
(1606743225.296991) can0 037#0000C35E00000301
(1606743225.297233) can0 0AF#0D0293FF1A000000
(1606743225.297483) can0 0AD#3900000000000000
(1606743225.297731) can0 0AC#0000000006010000
(1606743225.297981) can0 0AB#0000000000000040
(1606743225.298223) can0 0AA#0700090000008001
(1606743225.298463) can0 0A8#2200ABE90000FEFF
(1606743225.298703) can0 0A7#1B000000FAFFFCFF
(1606743225.298947) can0 0A6#0100FFFFFDFF0000
(1606743225.299183) can0 0A5#F0050A001000E6FC
(1606743225.299433) can0 0A4#0000000000000000
(1606743225.299661) can0 0A3#EEB9D71EEEBD071F
(1606743225.299912) can0 0C0#0000000001000000
(1606743225.306210) can0 0AF#0D03000001000000
(1606743225.306449) can0 0AE#1000B41911051820
(1606743225.306696) can0 0AD#3200000000000000
(1606743225.306943) can0 0AC#0000000009010000
(1606743225.307192) can0 0AB#0000000000000040
(1606743225.307434) can0 0AA#0700090000008001
(1606743225.307669) can0 0A9#9700FB00FF019504
(1606743225.307910) can0 0A8#2200ABE9FBFF0100
(1606743225.308155) can0 0A7#1A000000FDFFF9FF
(1606743225.308396) can0 0A6#FCFFFFFFFAFF0000
(1606743225.308631) can0 0A5#FC050B00110047FD
(1606743225.308880) can0 0A4#0000000000000000
(1606743225.309108) can0 0A3#EEB9D71EEEBD071F
(1606743225.309340) can0 0A2#F0D8F0D865050000
(1606743225.309566) can0 0A1#B30049083908F0D8
(1606743225.309802) can0 0A0#CD00D000CF00B300
(1606743225.314216) can0 002#0000323B00000000
(1606743225.315209) can0 0AF#0D04000000000000
(1606743225.315454) can0 0AD#5900000000000000
(1606743225.315701) can0 0AC#000001000C010000
(1606743225.315951) can0 0AB#0000000000000040
(1606743225.316193) can0 0AA#0700090000008001
(1606743225.316435) can0 0A8#2200ABE9FBFF0200
(1606743225.316679) can0 0A7#19000000FDFFF3FF
(1606743225.316923) can0 0A6#FCFFFFFF02000000
(1606743225.317161) can0 0A5#27060E0017009FFD
(1606743225.317411) can0 0A4#0000000000000000
(1606743225.317639) can0 0A3#EEB9D71EEEBD071F
(1606743225.324203) can0 0AF#0D059A0400000000
(1606743225.324451) can0 0AD#2200000000000000
(1606743225.324697) can0 0AC#000000000F010000
(1606743225.324947) can0 0AB#0000000000000040
(1606743225.325185) can0 0AA#0700090800008001
(1606743225.325425) can0 0A8#2200ABE9FEFF0000
(1606743225.325673) can0 0A7#1C000000FFFFF5FF
(1606743225.325923) can0 0A6#0000FFFF00000000
(1606743225.326161) can0 0A5#1E0609000E00F6FD
(1606743225.326414) can0 01C#0000000001000000
(1606743225.326664) can0 0A4#0000000000000000
(1606743225.326891) can0 0A3#EEB9D71EEEBDF71E
(1606743225.330125) can0 079#0000000000000000
(1606743225.333349) can0 0AF#0E000D020D0213EE
(1606743225.333595) can0 0AD#2500000000000000
(1606743225.333839) can0 0AC#0000FFFF12010000
(1606743225.334089) can0 0AB#0000000000000040
(1606743225.334327) can0 0AA#0700090800008001
(1606743225.334567) can0 0A8#2200ABE9FEFFFDFF
(1606743225.334809) can0 0A7#1B000000FDFFF9FF
(1606743225.335051) can0 0A6#0200FCFF00000000
(1606743225.335291) can0 0A5#08060200030040FE
(1606743225.335541) can0 0A4#0000000000000000
(1606743225.335767) can0 0A3#EEB9D71EEEBDF71E
(1606743225.342261) can0 0AF#0E0113EE97FFA9FF
(1606743225.342507) can0 0AD#2600000000000000
(1606743225.342757) can0 0AC#0000010015010000
(1606743225.343007) can0 0AB#0000000000000040
(1606743225.343245) can0 0AA#0700090800008001
(1606743225.343489) can0 0A8#2200ABE9FFFF0200
(1606743225.343731) can0 0A7#1B000000FAFFFEFF
(1606743225.343975) can0 0A6#FDFF010002000000
(1606743225.344213) can0 0A5#0906FBFFF8FF8BFE
(1606743225.344463) can0 0A4#0000000000000000
(1606743225.344691) can0 0A3#EEB9D71EEEBD071F
(1606743225.351201) can0 0AF#0E0282FF1E000000
(1606743225.351451) can0 0AD#3900000000000000
(1606743225.351701) can0 0AC#0000010018010000
(1606743225.351951) can0 0AB#0000000000000040
(1606743225.352189) can0 0AA#0700090800008001
(1606743225.352433) can0 0A8#2200ABE9FFFF0200
(1606743225.352675) can0 0A7#1B000000FDFFF9FF
(1606743225.352919) can0 0A6#FDFF0100FBFF0000
(1606743225.353157) can0 0A5#D605F4FFECFFD4FE
(1606743225.353407) can0 0A4#0000000000000000
(1606743225.353635) can0 0A3#EEB9D71EEEBD071F
(1606743225.360203) can0 0AF#0E03000001000000
(1606743225.360447) can0 0AD#5B00000000000000
(1606743225.360693) can0 0AC#000000001B010000
(1606743225.360943) can0 0AB#0000000000000040
(1606743225.361181) can0 0AA#0700090800008001
(1606743225.361423) can0 0A8#2200ABE907000000
(1606743225.361667) can0 0A7#1A000000FDFFF9FF
(1606743225.361909) can0 0A6#02000400F8FF0000
(1606743225.362147) can0 0A5#E0050100020011FF
(1606743225.362397) can0 0A4#0000000000000000
(1606743225.362625) can0 0A3#EEB9D71EEEBD071F
(1606743225.369199) can0 0AF#0E04000000000000
(1606743225.369443) can0 0AD#4B00000000000000
(1606743225.369693) can0 0AC#000000001E010000
(1606743225.369943) can0 0AB#0000000000000040
(1606743225.370181) can0 0AA#0700090800008001
(1606743225.370423) can0 0A8#2200ABE904000000
(1606743225.370665) can0 0A7#14000000FDFF0100
(1606743225.370911) can0 0A6#0200010000000000
(1606743225.371149) can0 0A5#C805000000004AFF
(1606743225.371399) can0 0A4#0000000000000000
(1606743225.371625) can0 0A3#EEB9D71EEEBDF71E
(1606743225.378192) can0 0AF#0E059A0400000000
(1606743225.378438) can0 0AD#4A00000000000000
(1606743225.378686) can0 0AC#0000000021010000
(1606743225.378936) can0 0AB#0000000000000040
(1606743225.379174) can0 0AA#0700090800008001
(1606743225.379416) can0 0A8#2200ABE9F9FFFFFF
(1606743225.379658) can0 0A7#19000000F8FFF7FF
(1606743225.379907) can0 0A6#FDFFFCFF00000000
(1606743225.380146) can0 0A5#BF05020003007AFF
(1606743225.380396) can0 0A4#0000000000000000
(1606743225.380622) can0 0A3#EEB9D71EEEBDF71E
(1606743225.387190) can0 0AF#0F000D020D0213EE
(1606743225.387434) can0 0AD#B200000000000000
(1606743225.387680) can0 0AC#0000010024010000
(1606743225.387930) can0 0AB#0000000000000040
(1606743225.388168) can0 0AA#0700090800008001
(1606743225.388406) can0 0A8#2200ABE9FAFF0300
(1606743225.388648) can0 0A7#1B000000F8FFF7FF
(1606743225.388894) can0 0A6#FAFFFFFFFEFF0000
(1606743225.389130) can0 0A5#2A0612001E00ABFF
(1606743225.389380) can0 0A4#0000000000000000
(1606743225.389608) can0 0A3#EEB9D71EEEBD071F
(1606743225.396334) can0 0AF#0F0112EE94FFA3FF
(1606743225.396580) can0 0AD#5C00000000000000
(1606743225.396826) can0 0AC#0000000027010000
(1606743225.397076) can0 0AB#0000000000000040
(1606743225.397314) can0 0AA#0700090800008001
(1606743225.397556) can0 0A8#2200ABE9FFFF0000
(1606743225.397798) can0 0A7#19000000FFFFF5FF
(1606743225.398042) can0 0A6#0000FFFFFEFF0000
(1606743225.398280) can0 0A5#26060C001300E2FF
(1606743225.398530) can0 0A4#0000000000000000
(1606743225.398759) can0 0A3#EEB9D71EEEBD071F
(1606743225.405188) can0 0AF#0F028BFF19000000
(1606743225.405426) can0 0AE#1000B41911051820
(1606743225.405672) can0 0AD#0E00000000000000
(1606743225.405918) can0 0AC#000000002A010000
(1606743225.406168) can0 0AB#0000000000000040
(1606743225.406413) can0 037#0000C25F00000301
(1606743225.406652) can0 0AA#0700090800008001
(1606743225.406887) can0 0A9#9700FB00FF019604
(1606743225.407129) can0 0A8#2200ABE9FCFF0000
(1606743225.407372) can0 0A7#1400000004000D00
(1606743225.407617) can0 0A6#FDFFFFFF05000000
(1606743225.407856) can0 0A5#E405F8FFF2FF1300
(1606743225.408106) can0 0A4#0000000000000000
(1606743225.408331) can0 0A3#EEB9D71EEEBDF71E
(1606743225.408564) can0 0A2#F0D8F0D865050000
(1606743225.408791) can0 0A1#B70049083908F0D8
(1606743225.409027) can0 0A0#CD00D000D000B100
(1606743225.409279) can0 0C0#0000000001000000
(1606743225.414189) can0 0AF#0F03000001000000
(1606743225.414433) can0 0AD#4200000000000000
(1606743225.414679) can0 0AC#000001002D010000
(1606743225.414929) can0 0AB#0000000000000040
(1606743225.415167) can0 0AA#0700090800008001
(1606743225.415407) can0 0A8#2200ABE9F9FF0200
(1606743225.415651) can0 0A7#1A000000FFFFFCFF
(1606743225.415897) can0 0A6#FBFFFFFF00000000
(1606743225.416133) can0 0A5#D605FEFFFDFF3D00
(1606743225.416380) can0 002#0000323B00000000
(1606743225.416630) can0 0A4#0000000000000000
(1606743225.416854) can0 0A3#EEB9D71EEEB9F71E
(1606743225.423196) can0 0AF#0F04000000000000
(1606743225.423444) can0 0AD#0000000000000000
(1606743225.423690) can0 0AC#0000FFFF30010000
(1606743225.423940) can0 0AB#0000000000000040
(1606743225.424178) can0 0AA#0700090800008001
(1606743225.424418) can0 0A8#2200ABE9FFFFFCFF
(1606743225.424660) can0 0A7#1A000000FDFFF5FF
(1606743225.424902) can0 0A6#0200FCFF00000000
(1606743225.425138) can0 0A5#E905FEFFFDFF7000
(1606743225.425388) can0 0A4#0000000000000000
(1606743225.425612) can0 0A3#EEB9D71EEEB9F71E
(1606743225.426157) can0 01C#0000000001000000
(1606743225.432186) can0 0AF#0F059A0400000000
(1606743225.432432) can0 0AD#2600000000000000
(1606743225.432677) can0 0AC#0000FFFF33010000
(1606743225.432928) can0 079#0000000000000000
(1606743225.433178) can0 0AB#0000000000000040
(1606743225.433416) can0 0AA#0700090800008001
(1606743225.433656) can0 0A8#2200ABE90000FCFF
(1606743225.433906) can0 0A7#1B0000000000F9FF
(1606743225.434148) can0 0A6#0200FDFF0E000000
(1606743225.434384) can0 0A5#D805FDFFFAFF9D00
(1606743225.434634) can0 0A4#0000000000000000
(1606743225.434862) can0 0A3#EEB9D71EEEBD071F
(1606743225.441182) can0 0AF#10000D020D0213EE
(1606743225.441432) can0 0AD#1000000000000000
(1606743225.441678) can0 0AC#0000000036010000
(1606743225.441928) can0 0AB#0000000000000040
(1606743225.442166) can0 0AA#0700090800008001
(1606743225.442408) can0 0A8#2200ABE900000000
(1606743225.442650) can0 0A7#19000000FFFFF9FF
(1606743225.442900) can0 0A6#0000000000000000
(1606743225.443138) can0 0A5#04060D001600CE00
(1606743225.443388) can0 0A4#0000000000000000
(1606743225.443616) can0 0A3#EEB9D71EEEBD071F
(1606743225.450240) can0 0AF#100113EE94FFA6FF
(1606743225.450484) can0 0AD#4B00000000000000
(1606743225.450730) can0 0AC#0000010039010000
(1606743225.450980) can0 0AB#0000000000000040
(1606743225.451218) can0 0AA#0700090800008001
(1606743225.451456) can0 0A8#2200ABE9FAFF0300
(1606743225.451700) can0 0A7#1A000000FAFFF5FF
(1606743225.451942) can0 0A6#FAFF0000FEFF0000
(1606743225.452184) can0 0A5#100602000300FA00
(1606743225.452434) can0 0A4#0000000000000000
(1606743225.452662) can0 0A3#EEB9D71EEEBD071F
(1606743225.459328) can0 0AF#100290FF1B000000
(1606743225.459574) can0 0AD#1700000000000000
(1606743225.459820) can0 0AC#000000003C010000
(1606743225.460070) can0 0AB#0000000000000040
(1606743225.460308) can0 0AA#0700090800008001
(1606743225.460550) can0 0A8#2200ABE902000000
(1606743225.460792) can0 0A7#1B000000FDFFF9FF
(1606743225.461040) can0 0A6#0000020000000000
(1606743225.461282) can0 0A5#20060B0011002101
(1606743225.461532) can0 0A4#0000000000000000
(1606743225.461760) can0 0A3#EEB9D71EEEBD071F
(1606743225.468188) can0 0AF#1003000001000000
(1606743225.468432) can0 0AD#8400000000000000
(1606743225.468680) can0 0AC#000000003F010000
(1606743225.468930) can0 0AB#0000000000000040
(1606743225.469168) can0 0AA#0700090800008001
(1606743225.469410) can0 0A8#2200ABE9FAFFFFFF
(1606743225.469654) can0 0A7#1C000000FDFFF7FF
(1606743225.469896) can0 0A6#FEFFFDFFFBFF0000
(1606743225.470134) can0 0A5#8205ECFFDFFF3601
(1606743225.470384) can0 0A4#0000000000000000
(1606743225.470612) can0 0A3#EEB9D71EEEBD071F
(1606743225.477248) can0 0AF#1004000000000000
(1606743225.477494) can0 0AD#6800000000000000
(1606743225.477740) can0 0AC#0000000042010000
(1606743225.477990) can0 0AB#0000000000000040
(1606743225.478232) can0 0AA#0700090000008001
(1606743225.478474) can0 0A8#2200ABE900000000
(1606743225.478718) can0 0A7#1C000000FDFFF7FF
(1606743225.478968) can0 0A6#0000000000000000
(1606743225.479204) can0 0A5#7405FAFFF5FF3501
(1606743225.479454) can0 0A4#0000000000000000
(1606743225.479682) can0 0A3#EEB9D71EEEBD071F
(1606743225.486242) can0 0AF#10059A0400000000
(1606743225.486488) can0 0AD#2A00000000000000
(1606743225.486734) can0 0AC#0000000045010000
(1606743225.486983) can0 0AB#0000000000000040
(1606743225.487225) can0 0AA#0700090000008001
(1606743225.487468) can0 0A8#2200ABE9F9FF0100
(1606743225.487711) can0 0A7#1A000000FFFFFCFF
(1606743225.487957) can0 0A6#FBFF0000FBFF0000
(1606743225.488192) can0 0A5#5C05F5FFEDFF3401
(1606743225.488441) can0 0A4#0000000000000000
(1606743225.488670) can0 0A3#EEBDD71EEEBD071F
(1606743225.495245) can0 0AF#11000D020D0213EE
(1606743225.495492) can0 0AD#2500000000000000
(1606743225.495739) can0 0AC#0000010048010000
(1606743225.495989) can0 0AB#0000000000000040
(1606743225.496231) can0 0AA#0700090000008001
(1606743225.496473) can0 0A8#2200ABE9FBFF0300
(1606743225.496719) can0 0A7#18000000FDFFF5FF
(1606743225.496959) can0 0A6#FAFF0200F5FF0000
(1606743225.497193) can0 0A5#6805FCFFF8FF3301
(1606743225.497443) can0 0A4#0000000000000000
(1606743225.497667) can0 0A3#EEBDD71EEEB9F71E
(1606743225.504243) can0 0AF#110113EE91FFA6FF
(1606743225.504481) can0 0AE#1000B41911051820
(1606743225.504727) can0 0AD#3500000000000000
(1606743225.504969) can0 0AC#0000FEFF4B010000
(1606743225.505220) can0 0AB#0000000000000040
(1606743225.505461) can0 0AA#0700090000008001
(1606743225.505697) can0 0A9#9700FB00FF019704
(1606743225.505941) can0 0A8#2200ABE9FBFFFBFF
(1606743225.506183) can0 0A7#1C000000FAFFF9FF
(1606743225.506430) can0 0A6#0000FAFFFBFF0000
(1606743225.506665) can0 0A5#5A05FAFFF6FF2B01
(1606743225.506913) can0 0A4#0000000000000000
(1606743225.507137) can0 0A3#EEB9D71EEEB9F71E
(1606743225.507369) can0 0A2#F0D8F0D865050000
(1606743225.507599) can0 0A1#B40049083908F0D8
(1606743225.507835) can0 0A0#CD00D000D000B100
(1606743225.513243) can0 0AF#11028EFF19000000
(1606743225.513483) can0 037#0000C35E00000301
(1606743225.513729) can0 0AD#5000000000000000
(1606743225.513975) can0 0AC#000000004E010000
(1606743225.514225) can0 0AB#0000000000000040
(1606743225.514467) can0 0AA#0700090000008001
(1606743225.514709) can0 0A8#2200ABE900000000
(1606743225.514953) can0 0A7#1B000000FDFFF7FF
(1606743225.515197) can0 0A6#0200FDFFFBFF0000
(1606743225.515444) can0 002#0000323B00000000
(1606743225.515680) can0 0A5#9D05030004003C01
(1606743225.515930) can0 0A4#0000000000000000
(1606743225.516158) can0 0A3#EEB9D71EEEBD071F
(1606743225.517309) can0 0C0#0000000001000000
(1606743225.522335) can0 0AF#1103000001000000
(1606743225.522579) can0 0AD#A700000000000000
(1606743225.522826) can0 0AC#0000000051010000
(1606743225.523075) can0 0AB#0000000000000040
(1606743225.523318) can0 0AA#0700090000008001
(1606743225.523562) can0 0A8#2200ABE905000000
(1606743225.523803) can0 0A7#19000000F8FFF3FF
(1606743225.524050) can0 0A6#0200020000000000
(1606743225.524285) can0 0A5#0406130026004E01
(1606743225.524535) can0 0A4#0000000000000000
(1606743225.524761) can0 0A3#EEB9D71EEEB9071F
(1606743225.527572) can0 01C#0000000001000000
(1606743225.531249) can0 0AF#1104000000000000
(1606743225.531494) can0 0AD#4E00000000000000
(1606743225.531741) can0 0AC#0000000054010000
(1606743225.531990) can0 0AB#0000000000000040
(1606743225.532232) can0 0AA#0700090000008001
(1606743225.532476) can0 0A8#2200ABE905000000
(1606743225.532721) can0 0A7#1A000000FFFFF9FF
(1606743225.532967) can0 0A6#02000200FBFF0000
(1606743225.533202) can0 0A5#ED05FFFFFEFF6201
(1606743225.533453) can0 0A4#0000000000000000
(1606743225.533704) can0 079#0000000000000000
(1606743225.533930) can0 0A3#EEB9D71EEEB9071F
(1606743225.540244) can0 0AF#11059A0400000000
(1606743225.540492) can0 0AD#3D00000000000000
(1606743225.540738) can0 0AC#0000000057010000
(1606743225.540988) can0 0AB#0000000000000040
(1606743225.541230) can0 0AA#0700090000008001
(1606743225.541472) can0 0A8#2200ABE902000000
(1606743225.541716) can0 0A7#1A000000FDFFF7FF
(1606743225.541960) can0 0A6#00000200FEFF0000
(1606743225.542200) can0 0A5#160606000E008301
(1606743225.542450) can0 0A4#0000000000000000
(1606743225.542676) can0 0A3#EEB9D71EEEB9071F
(1606743225.549244) can0 0AF#12000D020D0213EE
(1606743225.549490) can0 0AD#6100000000000000
(1606743225.549736) can0 0AC#000000005A010000
(1606743225.549986) can0 0AB#0000000000000040
(1606743225.550228) can0 0AA#0700090000008001
(1606743225.550468) can0 0A8#2200ABE90800FFFF
(1606743225.550712) can0 0A7#1A000000F8FFF9FF
(1606743225.550952) can0 0A6#0500020005000000
(1606743225.551192) can0 0A5#B705F0FFE0FF9A01
(1606743225.551442) can0 0A4#0000000000000000
(1606743225.551668) can0 0A3#EEB9D71EEEB9071F
(1606743225.558242) can0 0AF#120113EE94FFA3FF
(1606743225.558488) can0 0AD#2A00000000000000
(1606743225.558734) can0 0AC#000000005D010000
(1606743225.558984) can0 0AB#0000000000000040
(1606743225.559225) can0 0AA#0700090000008001
(1606743225.559465) can0 0A8#2200ABE90200FEFF
(1606743225.559708) can0 0A7#19000000FDFFFCFF
(1606743225.559952) can0 0A6#02000000FEFF0000
(1606743225.560189) can0 0A5#C005F6FFF3FFB101
(1606743225.560439) can0 0A4#0000000000000000
(1606743225.560666) can0 0A3#EEB9D71EEEB9071F
(1606743225.567239) can0 0AF#120290FF1B000000
(1606743225.567487) can0 0AD#1100000000000000
(1606743225.567735) can0 0AC#0000000060010000
(1606743225.567985) can0 0AB#0000000000000040
(1606743225.568227) can0 0AA#0700090000008001
(1606743225.568469) can0 0A8#2200ABE900000000
(1606743225.568711) can0 0A7#19000000F8FFF9FF
(1606743225.568961) can0 0A6#0000000000000000
(1606743225.569199) can0 0A5#0C060B001100D001
(1606743225.569449) can0 0A4#0000000000000000
(1606743225.569675) can0 0A3#EEB9D71EEEB9071F
(1606743225.576247) can0 0AF#1203000001000000
(1606743225.576493) can0 0AD#0B00000000000000
(1606743225.576737) can0 0AC#0000010063010000
(1606743225.576987) can0 0AB#0000000000000040
(1606743225.577229) can0 0AA#0700090000008001
(1606743225.577467) can0 0A8#2200ABE905000200
(1606743225.577713) can0 0A7#1B000000FFFFF5FF
(1606743225.577961) can0 0A6#0000050000000000
(1606743225.578199) can0 0A5#060606000900EA01
(1606743225.578449) can0 0A4#0000000000000000
(1606743225.578675) can0 0A3#EEB9D71EEEBDF71E
(1606743225.585337) can0 0AF#1204000000000000
(1606743225.585583) can0 0AD#7200000000000000
(1606743225.585829) can0 0AC#0000FFFF66010000
(1606743225.586079) can0 0AB#0000000000000040
(1606743225.586321) can0 0AA#0700090000008001
(1606743225.586565) can0 0A8#2200ABE9FBFFFCFF
(1606743225.586809) can0 0A7#1A000000FFFFFCFF
(1606743225.587057) can0 0A6#0000FBFF00000000
(1606743225.587299) can0 0A5#A605F7FFF0FFED01
(1606743225.587549) can0 0A4#0000000000000000
(1606743225.587775) can0 0A3#EEB9D71EEEBDF71E
(1606743225.594243) can0 0AF#12059A0400000000
(1606743225.594491) can0 0AD#7000000000000000
(1606743225.594737) can0 0AC#0000000069010000
(1606743225.594987) can0 0AB#0000000000000040
(1606743225.595229) can0 0AA#0700090000008001
(1606743225.595471) can0 0A8#2200ABE9FEFF0100
(1606743225.595709) can0 0A7#1B000000F6FFF7FF
(1606743225.595951) can0 0A6#FDFF0000FEFF0000
(1606743225.596187) can0 0A5#D9051B002D00EC01
(1606743225.596437) can0 0A4#0000000000000000
(1606743225.596663) can0 0A3#EEB9D71EEEB9071F
(1606743225.603303) can0 0AF#13000D020D0213EE
(1606743225.603541) can0 0AE#1000B41911051820
(1606743225.603787) can0 0AD#8E00000000000000
(1606743225.604031) can0 0AC#000001006C010000
(1606743225.604281) can0 0AB#0000000000000040
(1606743225.604523) can0 0AA#0700090000008001
(1606743225.604759) can0 0A9#9700FB00FF019304
(1606743225.604999) can0 0A8#2200ABE9FEFF0100
(1606743225.605245) can0 0A7#1A0000000000F9FF
(1606743225.605489) can0 0A6#FDFF000000000000
(1606743225.605725) can0 0A5#060613002000F701
(1606743225.605975) can0 0A4#0000000000000000
(1606743225.606203) can0 0A3#EEB9D71EEEBD071F
(1606743225.606435) can0 0A2#F0D8F0D865050000
(1606743225.606665) can0 0A1#B40049083908F0D8
(1606743225.606901) can0 0A0#CD00D100CF00B000
(1606743225.612237) can0 0AF#130113EE97FFA6FF
(1606743225.612483) can0 0AD#1C00000000000000
(1606743225.612729) can0 0AC#000001006F010000
(1606743225.612979) can0 0AB#0000000000000040
(1606743225.613221) can0 0AA#0700090000008001
(1606743225.613459) can0 0A8#2200ABE905000300
(1606743225.613701) can0 0A7#19000000F8FFF7FF
(1606743225.613945) can0 0A6#00000500F8FF0000
(1606743225.614192) can0 002#0000323B00000000
(1606743225.614432) can0 0A5#B705FFFFFEFFFE01
(1606743225.614682) can0 0A4#0000000000000000
(1606743225.614908) can0 0A3#EDB9D71EEEBDF71E
(1606743225.621236) can0 0AF#130293FF1B000000
(1606743225.621482) can0 0AD#1B00000000000000
(1606743225.621732) can0 0AC#0000000072010000
(1606743225.621982) can0 0AB#0000000000000040
(1606743225.622224) can0 0AA#0700090000008001
(1606743225.622466) can0 0A8#2200ABE900000000
(1606743225.622712) can0 0A7#1B000000FFFFF0FF
(1606743225.622951) can0 037#0000C35E00000301
(1606743225.623197) can0 0A6#0000000003000000
(1606743225.623435) can0 0A5#A905FCFFF9FF0402
(1606743225.623685) can0 0A4#0000000000000000
(1606743225.623911) can0 0A3#EDB9D71EEEBDF71E
(1606743225.626290) can0 0C0#0000000001000000
(1606743225.627550) can0 01C#0000000001000000
(1606743225.630240) can0 0AF#1303000001000000
(1606743225.630488) can0 0AD#1F00000000000000
(1606743225.630734) can0 0AC#0000000075010000
(1606743225.630984) can0 0AB#0000000000000040
(1606743225.631222) can0 0AA#0700090800008001
(1606743225.631462) can0 0A8#2200ABE90200FFFF
(1606743225.631706) can0 0A7#1A000000FFFFF5FF
(1606743225.631952) can0 0A6#0200000000000000
(1606743225.632196) can0 0A5#B105000000001202
(1606743225.632446) can0 0A4#0000000000000000
(1606743225.632674) can0 0A3#EEB9D71EEEBD071F
(1606743225.636374) can0 079#0000000000000000
(1606743225.639241) can0 0AF#1304000000000000
(1606743225.639491) can0 0AD#2F00000000000000
(1606743225.639739) can0 0AC#0000000078010000
(1606743225.639988) can0 0AB#0000000000000040
(1606743225.640226) can0 0AA#0700090800008001
(1606743225.640471) can0 0A8#2200ABE905000000
(1606743225.640712) can0 0A7#1A0000000200FCFF
(1606743225.640954) can0 0A6#02000200FEFF0000
(1606743225.641189) can0 0A5#A105FEFFFCFF1302
(1606743225.641438) can0 0A4#0000000000000000
(1606743225.641664) can0 0A3#EEB9D71EEEB9071F
(1606743225.648320) can0 0AF#13059A0400000000
(1606743225.648567) can0 0AD#0300000000000000
(1606743225.648812) can0 0AC#000000007B010000
(1606743225.649062) can0 0AB#0000000000000040
(1606743225.649300) can0 0AA#0700090800008001
(1606743225.649545) can0 0A8#2200ABE905000000
(1606743225.649786) can0 0A7#19000000FDFFFCFF
(1606743225.650033) can0 0A6#02000200FBFF0000
(1606743225.650274) can0 0A5#C705040006001902
(1606743225.650522) can0 0A4#0000000000000000
(1606743225.650748) can0 0A3#EEB9D71EEEB9071F
(1606743225.657232) can0 0AF#14000D020D0213EE
(1606743225.657478) can0 0AD#0700000000000000
(1606743225.657725) can0 0AC#000001007E010000
(1606743225.657975) can0 0AB#0000000000000040
(1606743225.658213) can0 0AA#0700090800008001
(1606743225.658454) can0 0A8#2200ABE900000200
(1606743225.658698) can0 0A7#1A0000000000F7FF
(1606743225.658942) can0 0A6#FEFF020000000000
(1606743225.659180) can0 0A5#C105030005002B02
(1606743225.659430) can0 0A4#0000000000000000
(1606743225.659656) can0 0A3#EEB9E71EEEBD071F
(1606743225.666226) can0 0AF#140112EE91FFA6FF
(1606743225.666472) can0 0AD#2B00000000000000
(1606743225.666720) can0 0AC#0000FFFF81010000
(1606743225.666970) can0 0AB#0000000000000040
(1606743225.667208) can0 0AA#0700090800008001
(1606743225.667452) can0 0A8#2200ABE90000FDFF
(1606743225.667698) can0 0A7#1A0000000200F9FF
(1606743225.667940) can0 0A6#0200FEFF06000000
(1606743225.668182) can0 0A5#CC05000000002F02
(1606743225.668432) can0 0A4#0000000000000000
(1606743225.668658) can0 0A3#EEB9E71EEEBD071F
(1606743225.675224) can0 0AF#14028EFF19000000
(1606743225.675468) can0 0AD#7600000000000000
(1606743225.675718) can0 0AC#0000000084010000
(1606743225.675968) can0 0AB#0000000000000040
(1606743225.676206) can0 0AA#0700090800008001
(1606743225.676448) can0 0A8#2200ABE900000000
(1606743225.676692) can0 0A7#1D000000FFFFF3FF
(1606743225.676938) can0 0A6#00000000FEFF0000
(1606743225.677176) can0 0A5#FC05050008003902
(1606743225.677426) can0 0A4#0000000000000000
(1606743225.677654) can0 0A3#EEB9D71EEEBD071F
(1606743225.684232) can0 0AF#1403000001000000
(1606743225.684480) can0 0AD#1600000000000000
(1606743225.684726) can0 0AC#0000000087010000
(1606743225.684976) can0 0AB#0000000000000040
(1606743225.685214) can0 0AA#0700090800008001
(1606743225.685456) can0 0A8#2200ABE900000000
(1606743225.685700) can0 0A7#1B000000FDFFF7FF
(1606743225.685950) can0 0A6#0000000000000000
(1606743225.686186) can0 0A5#D105FAFFF6FF4202
(1606743225.686436) can0 0A4#0000000000000000
(1606743225.686664) can0 0A3#EEB9D71EEEBD071F
(1606743225.693232) can0 0AF#1404000000000000
(1606743225.693480) can0 0AD#0200000000000000
(1606743225.693726) can0 0AC#000000008A010000
(1606743225.693976) can0 0AB#0000000000000040
(1606743225.694214) can0 0AA#0700090800008001
(1606743225.694458) can0 0A8#2200ABE905000000
(1606743225.694702) can0 0A7#19000000FAFFF7FF
(1606743225.694948) can0 0A6#0200020000000000
(1606743225.695182) can0 0A5#C305F3FFE9FF5502
(1606743225.695432) can0 0A4#0000000000000000
(1606743225.695656) can0 0A3#EEB9E71EEEBD171F
(1606743225.702224) can0 0AF#14059A0400000000
(1606743225.702462) can0 0AE#1000B41911051820
(1606743225.702708) can0 0AD#1D00000000000000
(1606743225.702954) can0 0AC#000000008D010000
(1606743225.703204) can0 0AB#0000000000000040
(1606743225.703442) can0 0AA#0700090800008001
(1606743225.703678) can0 0A9#9700FA00FF019104
(1606743225.703918) can0 0A8#2200ABE90800FFFF
(1606743225.704160) can0 0A7#19000000FDFFF7FF
(1606743225.704400) can0 0A6#05000200FEFF0000
(1606743225.704636) can0 0A5#C905FBFFF7FF5C02
(1606743225.704886) can0 0A4#0000000000000000
(1606743225.705114) can0 0A3#EEB9D71EEEBD071F
(1606743225.705346) can0 0A2#F0D8F0D865050000
(1606743225.705572) can0 0A1#B30049083908F0D8
(1606743225.705806) can0 0A0#CD00D000CF00B100
(1606743225.711370) can0 0AF#15000D020D0213EE
(1606743225.711618) can0 0AD#2200000000000000
(1606743225.711866) can0 0AC#0000000090010000
(1606743225.712116) can0 0AB#0000000000000040
(1606743225.712354) can0 0AA#0700090800008001
(1606743225.712596) can0 0A8#2200ABE900000000
(1606743225.712842) can0 0A7#1A000000FFFFFEFF
(1606743225.713092) can0 0A6#0000000000000000
(1606743225.713328) can0 0A5#AB05F3FFEBFF6202
(1606743225.713578) can0 0A4#0000000000000000
(1606743225.713806) can0 0A3#EEB9D71EEEBD071F
(1606743225.716266) can0 002#0000323B00000000
(1606743225.720218) can0 0AF#150113EE9AFFA6FF
(1606743225.720466) can0 0AD#2D00000000000000
(1606743225.720712) can0 0AC#0000000093010000
(1606743225.720962) can0 0AB#0000000000000040
(1606743225.721200) can0 0AA#0700090800008001
(1606743225.721442) can0 0A8#2200ABE900000000
(1606743225.721686) can0 0A7#1A000000F8FFF9FF
(1606743225.721932) can0 0A6#00000000FEFF0000
(1606743225.722170) can0 0A5#BB05000000006802
(1606743225.722420) can0 0A4#0000000000000000
(1606743225.722648) can0 0A3#EEB9D71EEEBD071F
(1606743225.728784) can0 01C#0000000001000000
(1606743225.729216) can0 0AF#150290FF1B000000
(1606743225.729464) can0 0AD#1900000000000000
(1606743225.729710) can0 037#0000C25F00000301
(1606743225.729958) can0 0AC#0000010096010000
(1606743225.730208) can0 0AB#0000000000000040
(1606743225.730446) can0 0AA#0700090800008001
(1606743225.730688) can0 0A8#2200ABE900000200
(1606743225.730930) can0 0A7#1B000000FDFFF9FF
(1606743225.731176) can0 0A6#FEFF020003000000
(1606743225.731414) can0 0A5#B305010001006B02
(1606743225.731664) can0 0A4#0000000000000000
(1606743225.731892) can0 0A3#EEB9D71EEEBD071F
(1606743225.733364) can0 0C0#0000000001000000
(1606743225.738224) can0 0AF#1503000001000000
(1606743225.738472) can0 0AD#0D00000000000000
(1606743225.738716) can0 0AC#0000010099010000
(1606743225.738966) can0 0AB#0000000000000040
(1606743225.739217) can0 079#0000000000000000
(1606743225.739455) can0 0AA#0700090800008001
(1606743225.739697) can0 0A8#2200ABE900000200
(1606743225.739949) can0 0A7#1C000000FFFFF3FF
(1606743225.740191) can0 0A6#FEFF020004000000
(1606743225.740433) can0 0A5#C605050008007F02
(1606743225.740683) can0 0A4#0000000000000000
(1606743225.740911) can0 0A3#EEB9D71EEEBD071F
(1606743225.747225) can0 0AF#1504000000000000
(1606743225.747472) can0 0AD#4000000000000000
(1606743225.747715) can0 0AC#000001009C010000
(1606743225.747965) can0 0AB#0000000000000040
(1606743225.748204) can0 0AA#0700090800008001
(1606743225.748446) can0 0A8#2200ABE900000200
(1606743225.748690) can0 0A7#1A000000FDFFF9FF
(1606743225.748935) can0 0A6#FEFF020001000000
(1606743225.749171) can0 0A5#E90507000B009002
(1606743225.749421) can0 0A4#0000000000000000
(1606743225.749649) can0 0A3#EEB9D71EEEBD071F
(1606743225.756220) can0 0AF#15059A0400000000
(1606743225.756467) can0 0AD#0200000000000000
(1606743225.756715) can0 0AC#000000009F010000
(1606743225.756965) can0 0AB#0000000000000040
(1606743225.757203) can0 0AA#0700090800008001
(1606743225.757445) can0 0A8#2200ABE900000000
(1606743225.757687) can0 0A7#19000000FDFFF9FF
(1606743225.757936) can0 0A6#00000000FCFF0000
(1606743225.758174) can0 0A5#B005F2FFE9FFA002
(1606743225.758424) can0 0A4#0000000000000000
(1606743225.758650) can0 0A3#EEB9E71EEEBD071F
(1606743225.765213) can0 0AF#16000D020D0213EE
(1606743225.765458) can0 0AD#5A00000000000000
(1606743225.765703) can0 0AC#0000FFFFA2010000
(1606743225.765954) can0 0AB#0000000000000040
(1606743225.766191) can0 0AA#0700090800008001
(1606743225.766432) can0 0A8#2200ABE90800FEFF
(1606743225.766672) can0 0A7#19000000FDFFF5FF
(1606743225.766913) can0 0A6#0500020004000000
(1606743225.767152) can0 0A5#1A060A001100AF02
(1606743225.767402) can0 0A4#0000000000000000
(1606743225.767628) can0 0A3#EEB9E71EEEBD071F
(1606743225.774359) can0 0AF#160113EE97FFA6FF
(1606743225.774607) can0 0AD#3B00000000000000
(1606743225.774853) can0 0AC#00000000A5010000
(1606743225.775103) can0 0AB#0000000000000040
(1606743225.775345) can0 0AA#0700090000008001
(1606743225.775589) can0 0A8#2200ABE905000000
(1606743225.775840) can0 0A7#1B0000000000F9FF
(1606743225.776085) can0 0A6#0200020004000000
(1606743225.776323) can0 0A5#0A06FDFFFBFFBD02
(1606743225.776573) can0 0A4#0000000000000000
(1606743225.776801) can0 0A3#EEB9D71EEEBD071F
(1606743225.783212) can0 0AF#160290FF19000000
(1606743225.783459) can0 0AD#2200000000000000
(1606743225.783705) can0 0AC#0000FFFFA8010000
(1606743225.783955) can0 0AB#0000000000000040
(1606743225.784198) can0 0AA#0700090000008001
(1606743225.784438) can0 0A8#2200ABE90200FEFF
(1606743225.784684) can0 0A7#18000000FFFFFEFF
(1606743225.784929) can0 0A6#0200000004000000
(1606743225.785167) can0 0A5#0806FEFFFDFFC302
(1606743225.785417) can0 0A4#0000000000000000
(1606743225.785645) can0 0A3#EEB9D71EEEBD071F
(1606743225.792211) can0 0AF#1603000001000000
(1606743225.792461) can0 0AD#2400000000000000
(1606743225.792708) can0 0AC#00000000AB010000
(1606743225.792957) can0 0AB#0000000000000040
(1606743225.793199) can0 0AA#0700090000008001
(1606743225.793441) can0 0A8#2200ABE902000000
(1606743225.793687) can0 0A7#1A0000000000F9FF
(1606743225.793931) can0 0A6#00000200FCFF0000
(1606743225.794167) can0 0A5#130606000900D102
(1606743225.794417) can0 0A4#0000000000000000
(1606743225.794645) can0 0A3#EEB9D71EEEBD071F
(1606743225.801217) can0 0AF#1604000000000000
(1606743225.801455) can0 0AE#1000B41911051820
(1606743225.801703) can0 0AD#3100000000000000
(1606743225.801951) can0 0AC#00000000AE010000
(1606743225.802202) can0 0AB#0000000000000040
(1606743225.802443) can0 0AA#0700090000008001
(1606743225.802679) can0 0A9#9700FB00FF019604
(1606743225.802922) can0 0A8#2200ABE9FBFF0000
(1606743225.803165) can0 0A7#16000000FFFFF9FF
(1606743225.803409) can0 0A6#FEFFFEFFFFFF0000
(1606743225.803645) can0 0A5#5B0618002800E202
(1606743225.803895) can0 0A4#0000000000000000
(1606743225.804124) can0 0A3#EEB9D71EEEBD071F
(1606743225.804355) can0 0A2#F0D8F0D865050000
(1606743225.804583) can0 0A1#B30049083908F0D8
(1606743225.804816) can0 0A0#CD00D000CF00B100
(1606743225.810209) can0 0AF#16059A0400000000
(1606743225.810455) can0 0AD#1700000000000000
(1606743225.810702) can0 0AC#00000000B1010000
(1606743225.810951) can0 0AB#0000000000000040
(1606743225.811194) can0 0AA#0700090000008001
(1606743225.811433) can0 0A8#2200ABE903000000
(1606743225.811679) can0 0A7#1A000000FAFFF9FF
(1606743225.811923) can0 0A6#00000200FCFF0000
(1606743225.812161) can0 0A5#0E06FCFFF9FFED02
(1606743225.812411) can0 0A4#0000000000000000
(1606743225.812639) can0 0A3#EEB9D71EEEBD071F
(1606743225.815365) can0 002#0000323B00000000
(1606743225.819205) can0 0AF#17000D020D0213EE
(1606743225.819451) can0 0AD#0E00000000000000
(1606743225.819699) can0 0AC#00000000B4010000
(1606743225.819949) can0 0AB#0000000000000040
(1606743225.820191) can0 0AA#0700090000008001
(1606743225.820433) can0 0A8#2200ABE900000000
(1606743225.820677) can0 0A7#1A000000FFFFF5FF
(1606743225.820925) can0 0A6#00000000F0FF0000
(1606743225.821163) can0 0A5#360608000D00F702
(1606743225.821413) can0 0A4#0000000000000000
(1606743225.821641) can0 0A3#EEB9D71EEEBD071F
(1606743225.828261) can0 0AF#170112EE94FFA6FF
(1606743225.828509) can0 0AD#0200000000000000
(1606743225.828755) can0 0AC#00000000B7010000
(1606743225.829005) can0 0AB#0000000000000040
(1606743225.829247) can0 0AA#0700090000008001
(1606743225.829489) can0 0A8#2200ABE906000000
(1606743225.829735) can0 0A7#1A0000000000F9FF
(1606743225.829985) can0 0A6#0200020001000000
(1606743225.830223) can0 0A5#1B06FCFFF9FFFD02
(1606743225.830473) can0 0A4#0000000000000000
(1606743225.830701) can0 0A3#EEB9D71EEEBD071F
(1606743225.830954) can0 01C#0000000001000000
(1606743225.837288) can0 0AF#170290FF19000000
(1606743225.837535) can0 0AD#2C00000000000000
(1606743225.837780) can0 0AC#00000000BA010000
(1606743225.838030) can0 0AB#0000000000000040
(1606743225.838272) can0 0AA#0700090000008001
(1606743225.838514) can0 0A8#2200ABE900000000
(1606743225.838758) can0 0A7#1B000000FDFFF7FF
(1606743225.839004) can0 037#0000C25F00000301
(1606743225.839252) can0 0A6#00000000FCFF0000
(1606743225.839490) can0 0A5#F305F0FFE5FF1003
(1606743225.839740) can0 0A4#0000000000000000
(1606743225.839968) can0 0A3#EEB9D71EEEBD071F
(1606743225.841885) can0 079#0000000000000000
(1606743225.842366) can0 0C0#0000000001000000
(1606743225.846208) can0 0AF#1703000001000000
(1606743225.846452) can0 0AD#E100000000000000
(1606743225.846700) can0 0AC#00000000BD010000
(1606743225.846950) can0 0AB#0000000000000040
(1606743225.847192) can0 0AA#0700090000008001
(1606743225.847434) can0 0A8#2200ABE9FEFFFEFF
(1606743225.847678) can0 0A7#1B000000FDFFF7FF
(1606743225.847922) can0 0A6#0000FEFF01000000
(1606743225.848160) can0 0A5#9005EFFFE3FF0D03
(1606743225.848410) can0 0A4#0000000000000000
(1606743225.848638) can0 0A3#EEB9D71EEEBD071F
(1606743225.855206) can0 0AF#1704000000000000
(1606743225.855452) can0 0AD#0300000000000000
(1606743225.855702) can0 0AC#00000300C0010000
(1606743225.855952) can0 0AB#0000000000000040
(1606743225.856194) can0 0AA#0700090000008001
(1606743225.856436) can0 0A8#2200ABE900000600
(1606743225.856678) can0 0A7#16000000FDFFF9FF
(1606743225.856926) can0 0A6#FBFF050001000000
(1606743225.857162) can0 0A5#D405FEFFFCFF1603
(1606743225.857412) can0 0A4#0000000000000000
(1606743225.857641) can0 0A3#EEBDD71EEEBD071F
(1606743225.864198) can0 0AF#17059A0400000000
(1606743225.864444) can0 0AD#0400000000000000
(1606743225.864690) can0 0AC#0000FFFFC3010000
(1606743225.864941) can0 0AB#0000000000000040
(1606743225.865182) can0 0AA#0700090000008001
(1606743225.865426) can0 0A8#2200ABE90000FDFF
(1606743225.865671) can0 0A7#16000000FFFFFCFF
(1606743225.865914) can0 0A6#0200FEFF04000000
(1606743225.866155) can0 0A5#E805040006002003
(1606743225.866405) can0 0A4#0000000000000000
(1606743225.866628) can0 0A3#EEBDD71EEEBDF71E
(1606743225.873198) can0 0AF#18000D020D0213EE
(1606743225.873444) can0 0AD#0500000000000000
(1606743225.873690) can0 0AC#00000200C6010000
(1606743225.873940) can0 0AB#0000000000000040
(1606743225.874183) can0 0AA#0700090000008001
(1606743225.874422) can0 0A8#2200ABE903000400
(1606743225.874668) can0 0A7#18000000FAFFFEFF
(1606743225.874910) can0 0A6#FEFF0500FFFF0000
(1606743225.875148) can0 0A5#14060D0015002F03
(1606743225.875399) can0 0A4#0000000000000000
(1606743225.875624) can0 0A3#EEB9D71EEEBDF71E
(1606743225.882197) can0 0AF#180113EE8EFFA1FF
(1606743225.882440) can0 0AD#8400000000000000
(1606743225.882688) can0 0AC#00000000C9010000
(1606743225.882936) can0 0AB#0000000000000040
(1606743225.883178) can0 0AA#0700090000008001
(1606743225.883421) can0 0A8#2200ABE900000000
(1606743225.883669) can0 0A7#1A000000FFFFF7FF
(1606743225.883918) can0 0A6#0000000001000000
(1606743225.884152) can0 0A5#75061D002F002F03
(1606743225.884402) can0 0A4#0000000000000000
(1606743225.884632) can0 0A3#EEB9D71EEFBD071F
(1606743225.891196) can0 0AF#180288FF1A000000
(1606743225.891440) can0 0AD#4700000000000000
(1606743225.891688) can0 0AC#00000000CC010000
(1606743225.891936) can0 0AB#0000000000000040
(1606743225.892178) can0 0AA#0700090000008001
(1606743225.892418) can0 0A8#2200ABE9FEFFFFFF
(1606743225.892660) can0 0A7#1B000000FDFFFCFF
(1606743225.892902) can0 0A6#0000FEFFFCFF0000
(1606743225.893140) can0 0A5#3206FEFFFCFF3103
(1606743225.893390) can0 0A4#0000000000000000
(1606743225.893618) can0 0A3#EEB9D71EEEBD071F
(1606743225.900346) can0 0AF#1803000001000000
(1606743225.900584) can0 0AE#1000B41911051820
(1606743225.900830) can0 0AD#7300000000000000
(1606743225.901074) can0 0AC#00000100CF010000
(1606743225.901324) can0 0AB#0000000000000040
(1606743225.901566) can0 0AA#0700090000008001
(1606743225.901802) can0 0A9#9700FB00FF019604
(1606743225.902044) can0 0A8#2200ABE9FEFF0200
(1606743225.902289) can0 0A7#1C000000FFFFFCFF
(1606743225.902532) can0 0A6#FEFF000001000000
(1606743225.902770) can0 0A5#83060D0014004403
(1606743225.903020) can0 0A4#0000000000000000
(1606743225.903248) can0 0A3#EEB9D71EEEBD071F
(1606743225.903480) can0 0A2#F0D8F0D865050000
(1606743225.903706) can0 0A1#B30049083908F0D8
(1606743225.903940) can0 0A0#CD00D000CF00B100
(1606743225.909196) can0 0AF#1804000000000000
(1606743225.909442) can0 0AD#2500000000000000
(1606743225.909689) can0 0AC#00000000D2010000
(1606743225.909938) can0 0AB#0000000000000040
(1606743225.910180) can0 0AA#0700090000008001
(1606743225.910420) can0 0A8#2200ABE9FEFF0100
(1606743225.910662) can0 0A7#19000000FAFFF5FF
(1606743225.910906) can0 0A6#FEFF000004000000
(1606743225.911142) can0 0A5#3406FCFFF8FF4903
(1606743225.911392) can0 0A4#0000000000000000
(1606743225.911618) can0 0A3#EEB9D71EEEB9071F
(1606743225.914463) can0 002#0000323B00000000
(1606743225.918190) can0 0AF#18059A0400000000
(1606743225.918435) can0 0AD#0500000000000000
(1606743225.918679) can0 0AC#0000FEFFD5010000
(1606743225.918929) can0 0AB#0000000000000040
(1606743225.919171) can0 0AA#0700090000008001
(1606743225.919413) can0 0A8#2200ABE90500FCFF
(1606743225.919655) can0 0A7#19000000F8FFF9FF
(1606743225.919901) can0 0A6#0500000002000000
(1606743225.920139) can0 0A5#3406FAFFF6FF5603
(1606743225.920390) can0 0A4#0000000000000000
(1606743225.920615) can0 0A3#EEB9D71EEEB9071F
(1606743225.927187) can0 0AF#19000D020D0213EE
(1606743225.927433) can0 0AD#0600000000000000
(1606743225.927683) can0 0AC#00000000D8010000
(1606743225.927933) can0 0AB#0000000000000040
(1606743225.928171) can0 0AA#0700090800008001
(1606743225.928411) can0 0A8#2200ABE9FEFFFFFF
(1606743225.928655) can0 0A7#1C000000FDFFF9FF
(1606743225.928899) can0 0A6#0000FEFF02000000
(1606743225.929139) can0 0A5#3D06FDFFFBFF5D03
(1606743225.929390) can0 0A4#0000000000000000
(1606743225.929617) can0 0A3#EEB9D71EEEBD071F
(1606743225.930132) can0 01C#0000000001000000
(1606743225.936182) can0 0AF#190113EE94FF9EFF
(1606743225.936428) can0 0AD#0900000000000000
(1606743225.936676) can0 0AC#0000FFFFDB010000
(1606743225.936926) can0 0AB#0000000000000040
(1606743225.937164) can0 0AA#0700090800008001
(1606743225.937406) can0 0A8#2200ABE90800FDFF
(1606743225.937650) can0 0A7#190000000000FCFF
(1606743225.937894) can0 0A6#0500020002000000
(1606743225.938130) can0 0A5#530609000F006103
(1606743225.938380) can0 0A4#0000000000000000
(1606743225.938608) can0 0A3#EEB9D71EEEBD071F
(1606743225.944626) can0 079#0000000000000000
(1606743225.945186) can0 0AF#19028BFF1C000000
(1606743225.945434) can0 0AD#0100000000000000
(1606743225.945680) can0 0AC#00000000DE010000
(1606743225.945930) can0 0AB#0000000000000040
(1606743225.946168) can0 0AA#0700090800008001
(1606743225.946410) can0 0A8#2200ABE902000000
(1606743225.946658) can0 0A7#1B0000000000F7FF
(1606743225.946906) can0 0A6#0000020002000000
(1606743225.947150) can0 0A5#3B06010002005F03
(1606743225.947400) can0 0A4#0000000000000000
(1606743225.947628) can0 0A3#EEB9D71EEEBD071F
(1606743225.947949) can0 037#0000C35F00000301
(1606743225.951363) can0 0C0#0000000001000000
(1606743225.954187) can0 0AF#1903000001000000
(1606743225.954435) can0 0AD#0200000000000000
(1606743225.954681) can0 0AC#0000FFFFE1010000
(1606743225.954931) can0 0AB#0000000000000040
(1606743225.955169) can0 0AA#0700090800008001
(1606743225.955409) can0 0A8#2200ABE90200FEFF
(1606743225.955653) can0 0A7#1A000000FFFFFCFF
(1606743225.955899) can0 0A6#0200000000000000
(1606743225.956141) can0 0A5#3E0606000A005E03
(1606743225.956392) can0 0A4#0000000000000000
(1606743225.956619) can0 0A3#EEBDD71EEEBD071F
(1606743225.963339) can0 0AF#1904000000000000
(1606743225.963585) can0 0AD#9D00000000000000
(1606743225.963831) can0 0AC#00000000E4010000
(1606743225.964081) can0 0AB#0000000000000040
(1606743225.964319) can0 0AA#0700090800008001
(1606743225.964561) can0 0A8#2200ABE900000000
(1606743225.964809) can0 0A7#16000000FFFFF7FF
(1606743225.965057) can0 0A6#0000000002000000
(1606743225.965293) can0 0A5#90060C0013007103
(1606743225.965541) can0 0A4#0000000000000000
(1606743225.965769) can0 0A3#EEBDD71EEEBD071F
(1606743225.972189) can0 0AF#19059A0400000000
(1606743225.972433) can0 0AD#4800000000000000
(1606743225.972679) can0 0AC#00000000E7010000
(1606743225.972929) can0 0AB#0000000000000040
(1606743225.973167) can0 0AA#0700090800008001
(1606743225.973409) can0 0A8#2200ABE900000000
(1606743225.973651) can0 0A7#1A000000FAFF0100
(1606743225.973901) can0 0A6#0000000000000000
(1606743225.974137) can0 0A5#8006FDFFFAFF7903
(1606743225.974387) can0 0A4#0000000000000000
(1606743225.974615) can0 0A3#EEB9D71EEEBD071F
(1606743225.981243) can0 0AF#1A000D020D0213EE
(1606743225.981489) can0 0AD#3500000000000000
(1606743225.981737) can0 0AC#00000000EA010000
(1606743225.981987) can0 0AB#0000000000000040
(1606743225.982225) can0 0AA#0700090800008001
(1606743225.982465) can0 0A8#2200ABE9FEFF0100
(1606743225.982709) can0 0A7#1D000000FFFFF7FF
(1606743225.982951) can0 0A6#FEFF000005000000
(1606743225.983185) can0 0A5#3506EBFFDDFF7B03
(1606743225.983435) can0 0A4#0000000000000000
(1606743225.983663) can0 0A3#EEB9D71EEEBD071F
(1606743225.990243) can0 0AF#1A0113EE97FFA1FF
(1606743225.990489) can0 0AD#0900000000000000
(1606743225.990737) can0 0AC#00000000ED010000
(1606743225.990987) can0 0AB#0000000000000040
(1606743225.991225) can0 0AA#0700090800008001
(1606743225.991465) can0 0A8#2200ABE9FEFFFFFF
(1606743225.991711) can0 0A7#180000000400F7FF
(1606743225.991953) can0 0A6#0000FEFF0D000000
(1606743225.992189) can0 0A5#A406140020008203
(1606743225.992439) can0 0A4#0000000000000000
(1606743225.992667) can0 0A3#EEB9D71EEEBD071F
(1606743225.999245) can0 0AF#1A028BFF1A000000
(1606743225.999483) can0 0AE#1000B41911051820
(1606743225.999731) can0 0AD#3200000000000000
(1606743225.999979) can0 0AC#00000100F0010000
(1606743226.000229) can0 0AB#0000000000000040
(1606743226.000467) can0 0AA#0700090800008001
(1606743226.000703) can0 0A9#9700FB00FF019604
(1606743226.000943) can0 0A8#2200ABE901000200
(1606743226.001183) can0 0A7#190000000D00FCFF
(1606743226.001427) can0 0A6#FEFF020000000000
(1606743226.001669) can0 0A5#5E06FEFFFDFF8303
(1606743226.001919) can0 0A4#0000000000000000
(1606743226.002147) can0 0A3#EEB9D71EEEBD071F
(1606743226.002379) can0 0A2#F0D8F0D865050000
(1606743226.002605) can0 0A1#B30049083908F0D8
(1606743226.002839) can0 0A0#CD00D000CF00B100
(1606743226.008245) can0 0AF#1A03000001000000
(1606743226.008493) can0 0AD#6F00000000000000
(1606743226.008741) can0 0AC#00000000F3010000
(1606743226.008991) can0 0AB#0000000000000040
(1606743226.009229) can0 0AA#0700090800008001
(1606743226.009471) can0 0A8#2200ABE9FBFF0000
(1606743226.009719) can0 0A7#18000000FFFFF5FF
(1606743226.009967) can0 0A6#FEFFFEFF02000000
(1606743226.010205) can0 0A5#4406000000008903
(1606743226.010455) can0 0A4#0000000000000000
(1606743226.010683) can0 0A3#EEB9D71EEEBD071F
(1606743226.013542) can0 002#0000323B00000000
(1606743226.017250) can0 0AF#1A04000000000000
(1606743226.017496) can0 0AD#2500000000000000
(1606743226.017742) can0 0AC#00000100F6010000
(1606743226.017992) can0 0AB#0000000000000040
(1606743226.018230) can0 0AA#0700090800008001
(1606743226.018472) can0 0A8#2200ABE9FDFFFBFF
(1606743226.018716) can0 0A7#1B000000FDFFF5FF
(1606743226.018962) can0 0A6#0200FBFF00000000
(1606743226.019198) can0 0A5#5C06030004008F03
(1606743226.019448) can0 0A4#0000000000000000
(1606743226.019676) can0 0A3#EEB9D71EEEBD071F
(1606743226.026334) can0 0AF#1A059A0400000000
(1606743226.026580) can0 0AD#3300000000000000
(1606743226.026826) can0 0AC#0000FFFFF9010000
(1606743226.027076) can0 0AB#0000000000000040
(1606743226.027314) can0 0AA#0700090800008001
(1606743226.027554) can0 0A8#2200ABE90200FDFF
(1606743226.027796) can0 0A7#1B000000FDFFF9FF
(1606743226.028042) can0 0A6#0200000002000000
(1606743226.028278) can0 0A5#7D060B0011009403
(1606743226.028528) can0 0A4#0000000000000000
(1606743226.028756) can0 0A3#EEB9D71EEEBD071F
(1606743226.031609) can0 01C#0000000001000000
(1606743226.035243) can0 0AF#1B000D020D0213EE
(1606743226.035489) can0 0AD#2500000000000000
(1606743226.035739) can0 0AC#00000000FC010000
(1606743226.035989) can0 0AB#0000000000000040
(1606743226.036227) can0 0AA#0700090800008001
(1606743226.036469) can0 0A8#2200ABE9FBFF0000
(1606743226.036713) can0 0A7#1A000000FDFFF9FF
(1606743226.036955) can0 0A6#FEFF0200FFFF0000
(1606743226.037189) can0 0A5#2206F5FFEEFF8B03
(1606743226.037439) can0 0A4#0000000000000000
(1606743226.037667) can0 0A3#EEB9D71EEEBD071F
(1606743226.044243) can0 0AF#1B0113EE97FFA3FF
(1606743226.044491) can0 0AD#2000000000000000
(1606743226.044739) can0 0AC#00000400FF010000
(1606743226.044989) can0 0AB#0000000000000040
(1606743226.045227) can0 0AA#0700090800008001
(1606743226.045478) can0 079#0000000000000000
(1606743226.045718) can0 0A8#2200ABE9FFFF0800
(1606743226.045962) can0 0A7#1A000000FDFFFCFF
(1606743226.046206) can0 0A6#FEFF020000000000
(1606743226.046442) can0 0A5#1C06F5FFEEFF8F03
(1606743226.046692) can0 0A4#0000000000000000
(1606743226.046920) can0 0A3#EEB9D71EEEBD071F
(1606743226.053242) can0 0AF#1B0290FF1A000000
(1606743226.053488) can0 0AD#3500000000000000
(1606743226.053738) can0 0AC#0000000002020000
(1606743226.053988) can0 0AB#0000000000000040
(1606743226.054226) can0 0AA#0700090800008001
(1606743226.054468) can0 0A8#2200ABE9FEFFFEFF
(1606743226.054710) can0 0A7#1A000000FAFFFCFF
(1606743226.054949) can0 037#0000C35E00000301
(1606743226.055195) can0 0A6#0000FEFF00000000
(1606743226.055435) can0 0A5#2C06000000009603
(1606743226.055685) can0 0A4#0000000000000000
(1606743226.055913) can0 0A3#EEB9D71EEEBD071F
(1606743226.058195) can0 0C0#0000000001000000
(1606743226.062251) can0 0AF#1B03000001000000
(1606743226.062498) can0 0AD#3400000000000000
(1606743226.062748) can0 0AC#0000000005020000
(1606743226.062998) can0 0AB#0000000000000040
(1606743226.063235) can0 0AA#0700090800008001
(1606743226.063478) can0 0A8#2200ABE900000000
(1606743226.063721) can0 0A7#1A000000FDFFF7FF
(1606743226.063971) can0 0A6#0000000000000000
(1606743226.064214) can0 0A5#5A060500FDFF9F03
(1606743226.064464) can0 0A4#0000000000000000
(1606743226.064691) can0 0A3#EEB9D71EEEBD071F
(1606743226.071254) can0 0AF#1B04000000000000
(1606743226.071501) can0 0AD#2200000000000000
(1606743226.071747) can0 0AC#0000000008020000
(1606743226.071999) can0 0AB#0000000000000040
(1606743226.072235) can0 0AA#0700090800008001
(1606743226.072475) can0 0A8#2200ABE9FEFF0000
(1606743226.072721) can0 0A7#1A0000000000F9FF
(1606743226.072963) can0 0A6#FEFF000005000000
(1606743226.073199) can0 0A5#3B06F2FFE8FFA203
(1606743226.073447) can0 0A4#0000000000000000
(1606743226.073676) can0 0A3#EEB9D71EEEBD071F
(1606743226.080243) can0 0AF#1B059A0400000000
(1606743226.080490) can0 0AD#5700000000000000
(1606743226.080738) can0 0AC#000000000B020000
(1606743226.080987) can0 0AB#0000000000000040
(1606743226.081229) can0 0AA#0700090000008001
(1606743226.081471) can0 0A8#2200ABE9FEFFFEFF
(1606743226.081713) can0 0A7#1B0000000400FCFF
(1606743226.081958) can0 0A6#0000FDFF08000000
(1606743226.082193) can0 0A5#2C06010002009A03
(1606743226.082443) can0 0A4#0000000000000000
(1606743226.082671) can0 0A3#EEB9D71EEEBD071F
(1606743226.089395) can0 0AF#1C000D020D0213EE
(1606743226.089639) can0 0AD#6200000000000000
(1606743226.089883) can0 0AC#0000FEFF0E020000
(1606743226.090133) can0 0AB#0000000000000040
(1606743226.090375) can0 0AA#0700090000008001
(1606743226.090617) can0 0A8#2200ABE90500FBFF
(1606743226.090860) can0 0A7#19000000FDFFFCFF
(1606743226.091103) can0 0A6#06000000FDFF0000
(1606743226.091343) can0 0A5#7E060F001800A103
(1606743226.091593) can0 0A4#0000000000000000
(1606743226.091821) can0 0A3#EEB9D71EEEBD071F
(1606743226.098307) can0 0AF#1C0113EE91FFA3FF
(1606743226.098545) can0 0AE#1000B41911051820
(1606743226.098791) can0 0AD#7A00000000000000
(1606743226.099039) can0 0AC#0000000011020000
(1606743226.099289) can0 0AB#0000000000000040
(1606743226.099531) can0 0AA#0700090000008001
(1606743226.099765) can0 0A9#9700FB00FF019504
(1606743226.100007) can0 0A8#2200ABE9FBFF0000
(1606743226.100249) can0 0A7#1D000000FFFFFEFF
(1606743226.100491) can0 0A6#FEFFFDFFFDFF0000
(1606743226.100729) can0 0A5#910607000C009F03
(1606743226.100979) can0 0A4#0000000000000000
(1606743226.101209) can0 0A3#EEB9D71EEFBD071F
(1606743226.101441) can0 0A2#F0D8F0D865050000
(1606743226.101671) can0 0A1#B40049083908F0D8
(1606743226.101909) can0 0A0#CD00D000D000B300
(1606743226.107243) can0 0AF#1C028EFF1A000000
(1606743226.107489) can0 0AD#0600000000000000
(1606743226.107737) can0 0AC#0000000014020000
(1606743226.107987) can0 0AB#0000000000000040
(1606743226.108229) can0 0AA#0700090000008001
(1606743226.108471) can0 0A8#2200ABE900000000
(1606743226.108713) can0 0A7#19000000F8FFF5FF
(1606743226.108961) can0 0A6#00000000FDFF0000
(1606743226.109195) can0 0A5#4106ECFFDEFFA803
(1606743226.109445) can0 0A4#0000000000000000
(1606743226.109675) can0 0A3#EEB9D71EEFBD071F
(1606743226.115664) can0 002#0000323B00000000
(1606743226.116248) can0 0AF#1C03000001000000
(1606743226.116496) can0 0AD#3F00000000000000
(1606743226.116742) can0 0AC#0000010017020000
(1606743226.116992) can0 0AB#0000000000000040
(1606743226.117234) can0 0AA#0700090000008001
(1606743226.117474) can0 0A8#2200ABE9F9FF0300
(1606743226.117716) can0 0A7#1A0000000200F7FF
(1606743226.117960) can0 0A6#FBFFFDFF00000000
(1606743226.118196) can0 0A5#AF060D001400B403
(1606743226.118446) can0 0A4#0000000000000000
(1606743226.118676) can0 0A3#EEB9D71EEFBD071F
(1606743226.125246) can0 0AF#1C04000000000000
(1606743226.125492) can0 0AD#1700000000000000
(1606743226.125738) can0 0AC#000001001A020000
(1606743226.125988) can0 0AB#0000000000000040
(1606743226.126230) can0 0AA#0700090000008001
(1606743226.126470) can0 0A8#2200ABE901000200
(1606743226.126714) can0 0A7#180000000D00F9FF
(1606743226.126954) can0 0A6#FEFF0200FDFF0000
(1606743226.127188) can0 0A5#9C0609000F00AF03
(1606743226.127438) can0 0A4#0000000000000000
(1606743226.127668) can0 0A3#EEB9D71EEFBD071F
(1606743226.133216) can0 01C#0000000001000000
(1606743226.134242) can0 0AF#1C059A0400000000
(1606743226.134487) can0 0AD#9A00000000000000
(1606743226.134732) can0 0AC#000002001D020000
(1606743226.134982) can0 0AB#0000000000000040
(1606743226.135224) can0 0AA#0700090000008001
(1606743226.135468) can0 0A8#2200ABE9FDFF0400
(1606743226.135714) can0 0A7#1B000000FFFFF5FF
(1606743226.135962) can0 0A6#FBFF000004000000
(1606743226.136203) can0 0A5#E30608000C00B403
(1606743226.136452) can0 0A4#0000000000000000
(1606743226.136680) can0 0A3#EEB9D71EEEBD071F
(1606743226.143236) can0 0AF#1D000D020D0213EE
(1606743226.143484) can0 0AD#2300000000000000
(1606743226.143732) can0 0AC#0000020020020000
(1606743226.143982) can0 0AB#0000000000000040
(1606743226.144224) can0 0AA#0700090000008001
(1606743226.144472) can0 0A8#2200ABE9FFFF0400
(1606743226.144714) can0 0A7#1B000000FDFFFCFF
(1606743226.144960) can0 0A6#FBFF0200FFFF0000
(1606743226.145194) can0 0A5#8A06F5FFEEFFBA03
(1606743226.145444) can0 0A4#0000000000000000
(1606743226.145672) can0 0A3#EEB9D71EEEBD071F
(1606743226.148081) can0 079#0000000000000000
(1606743226.152380) can0 0AF#1D0113EE91FFA1FF
(1606743226.152624) can0 0AD#6300000000000000
(1606743226.152870) can0 0AC#0000000023020000
(1606743226.153120) can0 0AB#0000000000000040
(1606743226.153362) can0 0AA#0700090000008001
(1606743226.153606) can0 0A8#2200ABE90000FFFF
(1606743226.153852) can0 0A7#1A000000FAFFF9FF
(1606743226.154101) can0 0A6#0000000001000000
(1606743226.154336) can0 0A5#7706F5FFEEFFBE03
(1606743226.154585) can0 0A4#0000000000000000
(1606743226.154813) can0 0A3#EEB9D71EEEBD071F
(1606743226.161232) can0 0AF#1D028BFF19000000
(1606743226.161477) can0 0AD#9800000000000000
(1606743226.161723) can0 0AC#0000FFFF26020000
(1606743226.161973) can0 0AB#0000000000000040
(1606743226.162215) can0 0AA#0700090000008001
(1606743226.162457) can0 0A8#2200ABE9FEFFFEFF
(1606743226.162701) can0 0A7#1A000000FDFFF9FF
(1606743226.162949) can0 0A6#0000FDFFFFFF0000
(1606743226.163189) can0 0A5#2D06EFFFE4FFC403
(1606743226.163440) can0 0A4#0000000000000000
(1606743226.163681) can0 037#0000C35F00000301
(1606743226.163909) can0 0A3#EEB9D71EEEBD071F
(1606743226.167105) can0 0C0#0000000001000000
(1606743226.170235) can0 0AF#1D03000001000000
(1606743226.170481) can0 0AD#3A00000000000000
(1606743226.170723) can0 0AC#0000FEFF29020000
(1606743226.170973) can0 0AB#0000000000000040
(1606743226.171215) can0 0AA#0700090000008001
(1606743226.171455) can0 0A8#2200ABE9FFFFFCFF
(1606743226.171705) can0 0A7#1B0000000000FEFF
(1606743226.171945) can0 0A6#0300FDFFFCFF0000
(1606743226.172179) can0 0A5#91061C002E00C003
(1606743226.172429) can0 0A4#0000000000000000
(1606743226.172657) can0 0A3#EEB9D71EEEBD071F
(1606743226.179237) can0 0AF#1D04000000000000
(1606743226.179487) can0 0AD#1300000000000000
(1606743226.179735) can0 0AC#000003002C020000
(1606743226.179985) can0 0AB#0000000000000040
(1606743226.180227) can0 0AA#0700090000008001
(1606743226.180465) can0 0A8#2200ABE9FCFF0600
(1606743226.180707) can0 0A7#19000000FFFFFCFF
(1606743226.180947) can0 0A6#F8FF0200F9FF0000
(1606743226.181181) can0 0A5#580606000900BB03
(1606743226.181431) can0 0A4#0000000000000000
(1606743226.181659) can0 0A3#EEB9D71EEEBD071F
(1606743226.188231) can0 0AF#1D059A0400000000
(1606743226.188477) can0 0AD#1700000000000000
(1606743226.188725) can0 0AC#000000002F020000
(1606743226.188975) can0 0AB#0000000000000040
(1606743226.189217) can0 0AA#0700090000008001
(1606743226.189459) can0 0A8#2200ABE9FEFFFEFF
(1606743226.189701) can0 0A7#1B000000FAFFF3FF
(1606743226.189945) can0 0A6#0000FDFF07000000
(1606743226.190187) can0 0A5#3E0601000000BD03
(1606743226.190437) can0 0A4#0000000000000000
(1606743226.190665) can0 0A3#EEB9D71EEEBD071F
(1606743226.197291) can0 0AF#1E000D020D0213EE
(1606743226.197529) can0 0AE#1000B41911051820
(1606743226.197775) can0 0AD#1700000000000000
(1606743226.198025) can0 0AC#0000000032020000
(1606743226.198275) can0 0AB#0000000000000040
(1606743226.198517) can0 0AA#0700090000008001
(1606743226.198753) can0 0A9#9700FB00FF019304
(1606743226.198993) can0 0A8#2200ABE9FEFF0000
(1606743226.199237) can0 0A7#1A000000FDFF0000
(1606743226.199481) can0 0A6#FEFF000001000000
(1606743226.199721) can0 0A5#3006F9FFF5FFBE03
(1606743226.199971) can0 0A4#0000000000000000
(1606743226.200199) can0 0A3#EEB9D71EEEBD071F
(1606743226.200431) can0 0A2#F0D8F0D865050000
(1606743226.200657) can0 0A1#B30049083908F0D8
(1606743226.200893) can0 0A0#CD00D000CF00B300
(1606743226.206226) can0 0AF#1E0113EE94FFA3FF
(1606743226.206472) can0 0AD#0A00000000000000
(1606743226.206718) can0 0AC#0000000035020000
(1606743226.206969) can0 0AB#0000000000000040
(1606743226.207210) can0 0AA#0700090000008001
(1606743226.207452) can0 0A8#2200ABE900000000
(1606743226.207697) can0 0A7#1A000000FFFFFCFF
(1606743226.207942) can0 0A6#00000000FEFF0000
(1606743226.208180) can0 0A5#2106FAFFF5FFB703
(1606743226.208430) can0 0A4#0000000000000000
(1606743226.208657) can0 0A3#EEB9E71EEEBD071F
(1606743226.214395) can0 002#0000323B00000000
(1606743226.215313) can0 0AF#1E0285FF1B000000
(1606743226.215561) can0 0AD#0C00000000000000
(1606743226.215809) can0 0AC#0000000038020000
(1606743226.216059) can0 0AB#0000000000000040
(1606743226.216301) can0 0AA#0700090000008001
(1606743226.216543) can0 0A8#2200ABE900000000
(1606743226.216789) can0 0A7#180000000000F9FF
(1606743226.217039) can0 0A6#0000000000000000
(1606743226.217279) can0 0A5#24060000FFFFB803
(1606743226.217529) can0 0A4#0000000000000000
(1606743226.217757) can0 0A3#EEB9D71EEEBD071F
(1606743226.224225) can0 0AF#1E03000001000000
(1606743226.224471) can0 0AD#0600000000000000
(1606743226.224719) can0 0AC#000000003B020000
(1606743226.224968) can0 0AB#0000000000000040
(1606743226.225208) can0 0AA#0700090800008001
(1606743226.225447) can0 0A8#2200ABE903000000
(1606743226.225686) can0 0A7#19000000F8FFFCFF
(1606743226.225930) can0 0A6#00000200FEFF0000
(1606743226.226168) can0 0A5#380608000D00A803
(1606743226.226418) can0 0A4#0000000000000000
(1606743226.226646) can0 0A3#EEB9D71EEEBD071F
(1606743226.233228) can0 0AF#1E04000000000000
(1606743226.233472) can0 0AD#5E00000000000000
(1606743226.233722) can0 0AC#000001003E020000
(1606743226.233972) can0 0AB#0000000000000040
(1606743226.234210) can0 0AA#0700090800008001
(1606743226.234452) can0 0A8#2200ABE900000200
(1606743226.234696) can0 0A7#1A000000FFFFFCFF
(1606743226.234949) can0 01C#0000000001000000
(1606743226.235189) can0 0A6#FEFF0200FEFF0000
(1606743226.235424) can0 0A5#670609000E00A903
(1606743226.235673) can0 0A4#0000000000000000
(1606743226.235901) can0 0A3#EEB9D71EEEBD071F
(1606743226.242225) can0 0AF#1E059A0400000000
(1606743226.242472) can0 0AD#0300000000000000
(1606743226.242719) can0 0AC#0000000041020000
(1606743226.242969) can0 0AB#0000000000000040
(1606743226.243209) can0 0AA#0700090800008001
(1606743226.243449) can0 0A8#2200ABE9FBFF0000
(1606743226.243697) can0 0A7#18000000FFFFF9FF
(1606743226.243939) can0 0A6#FEFFFDFFFEFF0000
(1606743226.244175) can0 0A5#550603000500A603
(1606743226.244425) can0 0A4#0000000000000000
(1606743226.244653) can0 0A3#EEB9D71EEEBD071F
(1606743226.248786) can0 079#0000000000000000
(1606743226.251280) can0 0AF#1F000D020D0214EE
(1606743226.251528) can0 0AD#1200000000000000
(1606743226.251776) can0 0AC#0000000044020000
(1606743226.252026) can0 0AB#0000000000000040
(1606743226.252264) can0 0AA#0700090800008001
(1606743226.252506) can0 0A8#2200ABE9FBFF0000
(1606743226.252752) can0 0A7#1A0000000400F9FF
(1606743226.252994) can0 0A6#FEFFFDFFFEFF0000
(1606743226.253232) can0 0A5#5006FDFFFBFFA803
(1606743226.253482) can0 0A4#0000000000000000
(1606743226.253710) can0 0A3#EEB9D71EEEBD071F
(1606743226.260218) can0 0AF#1F0113EE9AFFA6FF
(1606743226.260462) can0 0AD#6600000000000000
(1606743226.260706) can0 0AC#0000010047020000
(1606743226.260956) can0 0AB#0000000000000040
(1606743226.261194) can0 0AA#0700090800008001
(1606743226.261436) can0 0A8#2200ABE9FBFF0200
(1606743226.261678) can0 0A7#1A000000FAFFFCFF
(1606743226.261922) can0 0A6#FBFF0000FEFF0000
(1606743226.262160) can0 0A5#0A06F3FFE9FFA403
(1606743226.262410) can0 0A4#0000000000000000
(1606743226.262638) can0 0A3#EEBDD71EEEBD071F
(1606743226.269216) can0 0AF#1F0296FF1A000000
(1606743226.269462) can0 0AD#1C00000000000000
(1606743226.269711) can0 0AC#000000004A020000
(1606743226.269960) can0 0AB#0000000000000040
(1606743226.270198) can0 0AA#0700090800008001
(1606743226.270440) can0 0A8#2200ABE9FBFF0000
(1606743226.270682) can0 0A7#1B000000F8FFF9FF
(1606743226.270924) can0 0A6#FEFFFDFFFEFF0000
(1606743226.271166) can0 0A5#2906FFFFFFFFA603
(1606743226.271416) can0 0A4#0000000000000000
(1606743226.271644) can0 0A3#EEBDD71EEEBD071F
(1606743226.272801) can0 037#0000C25F00000301
(1606743226.274202) can0 0C0#0000000001000000
(1606743226.278372) can0 0AF#1F03000001000000
(1606743226.278620) can0 0AD#7C00000000000000
(1606743226.278866) can0 0AC#000000004D020000
(1606743226.279116) can0 0AB#0000000000000040
(1606743226.279354) can0 0AA#0700090800008001
(1606743226.279596) can0 0A8#2200ABE902000000
(1606743226.279840) can0 0A7#1A000000EFFFF9FF
(1606743226.280082) can0 0A6#00000200F6FF0000
(1606743226.280318) can0 0A5#DF05F1FFE6FFA903
(1606743226.280568) can0 0A4#0000000000000000
(1606743226.280796) can0 0A3#EEB9D71EEEBD071F
(1606743226.287222) can0 0AF#1F04000000000000
(1606743226.287466) can0 0AD#7400000000000000
(1606743226.287716) can0 0AC#0000FFFF50020000
(1606743226.287966) can0 0AB#0000000000000040
(1606743226.288204) can0 0AA#0700090800008001
(1606743226.288446) can0 0A8#2200ABE9FEFFFEFF
(1606743226.288686) can0 0A7#1B000000FFFFE8FF
(1606743226.288926) can0 0A6#0000FDFF09000000
(1606743226.289166) can0 0A5#CB05F3FFE9FFA003
(1606743226.289416) can0 0A4#0000000000000000
(1606743226.289644) can0 0A3#EEB9D71EEEBD071F
(1606743226.296214) can0 0AF#1F059A0400000000
(1606743226.296452) can0 0AE#1000B41911051820
(1606743226.296698) can0 0AD#0A00000000000000
(1606743226.296946) can0 0AC#0000000053020000
(1606743226.297196) can0 0AB#0000000000000040
(1606743226.297434) can0 0AA#0700090800008001
(1606743226.297670) can0 0A9#9700FB00FF019704
(1606743226.297912) can0 0A8#2200ABE902000000
(1606743226.298156) can0 0A7#1B000000FFFFF9FF
(1606743226.298400) can0 0A6#00000200FEFF0000
(1606743226.298638) can0 0A5#0C0608000E00A603
(1606743226.298888) can0 0A4#0000000000000000
(1606743226.299116) can0 0A3#EEB9D71EEEBD071F
(1606743226.299348) can0 0A2#F0D8F0D865050000
(1606743226.299578) can0 0A1#B40049083908F0D8
(1606743226.299814) can0 0A0#CD00D000D000B100
(1606743226.305274) can0 0AF#20000D020D0213EE
(1606743226.305520) can0 0AD#0300000000000000
(1606743226.305768) can0 0AC#0000FFFF56020000
(1606743226.306018) can0 0AB#0000000000000040
(1606743226.306256) can0 0AA#0700090800008001
(1606743226.306498) can0 0A8#2200ABE9FEFFFEFF
(1606743226.306740) can0 0A7#1A000000FAFFFCFF
(1606743226.306984) can0 0A6#0000FDFF00000000
(1606743226.307220) can0 0A5#EF05FAFFF6FFA203
(1606743226.307470) can0 0A4#0000000000000000
(1606743226.307698) can0 0A3#EEB9D71EEEBD071F
(1606743226.313341) can0 002#0000323B00000000
(1606743226.314214) can0 0AF#200113EE97FFA3FF
(1606743226.314460) can0 0AD#3400000000000000
(1606743226.314704) can0 0AC#0000010059020000
(1606743226.314954) can0 0AB#0000000000000040
(1606743226.315192) can0 0AA#0700090800008001
(1606743226.315434) can0 0A8#2200ABE9F8FF0100
(1606743226.315681) can0 0A7#18000000FAFFFEFF
(1606743226.315924) can0 0A6#FBFFFDFFFEFF0000
(1606743226.316169) can0 0A5#1606000000009F03
(1606743226.316419) can0 0A4#0000000000000000
(1606743226.316646) can0 0A3#EEB9D71EEEBD071F
(1606743226.323210) can0 0AF#20028EFF1C000000
(1606743226.323460) can0 0AD#0F00000000000000
(1606743226.323706) can0 0AC#000000005C020000
(1606743226.323956) can0 0AB#0000000000000040
(1606743226.324194) can0 0AA#0700090800008001
(1606743226.324435) can0 0A8#2200ABE9F7FF0100
(1606743226.324679) can0 0A7#1B000000FFFFF9FF
(1606743226.324922) can0 0A6#FBFFFDFFFEFF0000
(1606743226.325160) can0 0A5#FF05F6FFEFFF9B03
(1606743226.325411) can0 0A4#0000000000000000
(1606743226.325638) can0 0A3#EEB9D71EEEBD071F
(1606743226.332214) can0 0AF#2003000001000000
(1606743226.332460) can0 0AD#0700000000000000
(1606743226.332710) can0 0AC#000000005F020000
(1606743226.332960) can0 0AB#0000000000000040
(1606743226.333198) can0 0AA#0700090800008001
(1606743226.333440) can0 0A8#2200ABE9FDFF0000
(1606743226.333682) can0 0A7#1B000000F8FFF7FF
(1606743226.333926) can0 0A6#FEFF000001000000
(1606743226.334164) can0 0A5#E505F2FFE9FF9C03
(1606743226.334414) can0 0A4#0000000000000000
(1606743226.334642) can0 0A3#EEB9D71EEEBD071F
(1606743226.336480) can0 01C#0000000001000000
(1606743226.341300) can0 0AF#2004000000000000
(1606743226.341546) can0 0AD#B600000000000000
(1606743226.341792) can0 0AC#0000010062020000
(1606743226.342042) can0 0AB#0000000000000040
(1606743226.342280) can0 0AA#0700090800008001
(1606743226.342518) can0 0A8#2200ABE905000300
(1606743226.342762) can0 0A7#19000000FAFFF3FF
(1606743226.343006) can0 0A6#00000500FCFF0000
(1606743226.343240) can0 0A5#7705E8FFD7FF9803
(1606743226.343490) can0 0A4#0000000000000000
(1606743226.343716) can0 0A3#EEB9D71EEEB9071F
(1606743226.350210) can0 0AF#20059A0400000000
(1606743226.350458) can0 0AD#2000000000000000
(1606743226.350706) can0 0AC#0000000065020000
(1606743226.350956) can0 0AB#0000000000000040
(1606743226.351194) can0 0AA#0700090800008001
(1606743226.351436) can0 0A8#2200ABE9FBFF0000
(1606743226.351687) can0 079#0000000000000000
(1606743226.351931) can0 0A7#1A000000FFFFFCFF
(1606743226.352175) can0 0A6#FEFFFDFFFFFF0000
(1606743226.352409) can0 0A5#F30508000D009D03
(1606743226.352659) can0 0A4#0000000000000000
(1606743226.352887) can0 0A3#EEBDD71EEEB9071F
(1606743226.359263) can0 0AF#21000D020D0213EE
(1606743226.359509) can0 0AD#5700000000000000
(1606743226.359757) can0 0AC#0000000068020000
(1606743226.360007) can0 0AB#0000000000000040
(1606743226.360245) can0 0AA#0700090800008001
(1606743226.360489) can0 0A8#2200ABE905000000
(1606743226.360737) can0 0A7#18000000FFFFF9FF
(1606743226.360981) can0 0A6#02000200FFFF0000
(1606743226.361217) can0 0A5#F705F8FFF2FF9B03
(1606743226.361467) can0 0A4#0000000000000000
(1606743226.361695) can0 0A3#EEBDD71EEEBD071F
(1606743226.368199) can0 0AF#210113EE94FFA3FF
(1606743226.368445) can0 0AD#0E00000000000000
(1606743226.368691) can0 0AC#000000006B020000
(1606743226.368941) can0 0AB#0000000000000040
(1606743226.369179) can0 0AA#0700090800008001
(1606743226.369419) can0 0A8#2200ABE9FEFF0100
(1606743226.369663) can0 0A7#18000000F8FFF9FF
(1606743226.369905) can0 0A6#FEFF0000F9FF0000
(1606743226.370141) can0 0A5#ED05F6FFEFFFA103
(1606743226.370391) can0 0A4#0000000000000000
(1606743226.370619) can0 0A3#EEB9D71EEEBD071F
(1606743226.377197) can0 0AF#21028EFF1C000000
(1606743226.377447) can0 0AD#3C00000000000000
(1606743226.377691) can0 0AC#000001006E020000
(1606743226.377941) can0 0AB#0000000000000040
(1606743226.378183) can0 0AA#0700090000008001
(1606743226.378425) can0 0A8#2200ABE900000200
(1606743226.378667) can0 0A7#19000000FAFFF9FF
(1606743226.378909) can0 0A6#FEFF0200FFFF0000
(1606743226.379145) can0 0A5#060606000A00A203
(1606743226.379395) can0 0A4#0000000000000000
(1606743226.379623) can0 0A3#EEB9D71EEEBD071F
(1606743226.381600) can0 037#0000C35E00000301
(1606743226.383011) can0 0C0#0000000001000000
(1606743226.386203) can0 0AF#2103000001000000
(1606743226.386451) can0 0AD#0200000000000000
(1606743226.386697) can0 0AC#0000000071020000
(1606743226.386947) can0 0AB#0000000000000040
(1606743226.387189) can0 0AA#0700090000008001
(1606743226.387431) can0 0A8#2200ABE902000000
(1606743226.387677) can0 0A7#1A0000000200F9FF
(1606743226.387925) can0 0A6#0000020001000000
(1606743226.388163) can0 0A5#100609000F009F03
(1606743226.388413) can0 0A4#0000000000000000
(1606743226.388641) can0 0A3#EEB9D71EEEBD071F
(1606743226.395205) can0 0AF#2104000000000000
(1606743226.395443) can0 0AE#1000B41911051820
(1606743226.395689) can0 0AD#1D00000000000000
(1606743226.395937) can0 0AC#0000FFFF74020000
(1606743226.396187) can0 0AB#0000000000000040
(1606743226.396429) can0 0AA#0700090000008001
(1606743226.396663) can0 0A9#9700FB00FF019504
(1606743226.396907) can0 0A8#2200ABE90000FDFF
(1606743226.397149) can0 0A7#1B000000FDFFF9FF
(1606743226.397391) can0 0A6#0200FEFFFCFF0000
(1606743226.397631) can0 0A5#DD05F5FFEDFF9703
(1606743226.397881) can0 0A4#0000000000000000
(1606743226.398109) can0 0A3#EEB9D71EEEBD071F
(1606743226.398341) can0 0A2#F0D8F0D865050000
(1606743226.398567) can0 0A1#B10049083908F0D8
(1606743226.398803) can0 0A0#CD00D000CF00B200
(1606743226.404289) can0 0AF#21059A0400000000
(1606743226.404535) can0 0AD#0900000000000000
(1606743226.404779) can0 0AC#0000010077020000
(1606743226.405029) can0 0AB#0000000000000040
(1606743226.405271) can0 0AA#0700090000008001
(1606743226.405513) can0 0A8#2200ABE900000200
(1606743226.405757) can0 0A7#1A000000FFFFF5FF
(1606743226.406003) can0 0A6#FEFF020001000000
(1606743226.406241) can0 0A5#FE0507000B009103
(1606743226.406491) can0 0A4#0000000000000000
(1606743226.406719) can0 0A3#EEB9D71EEEBD071F
(1606743226.413195) can0 0AF#22000D020D0213EE
(1606743226.413441) can0 0AD#5700000000000000
(1606743226.413687) can0 0AC#000000007A020000
(1606743226.413937) can0 0AB#0000000000000040
(1606743226.414179) can0 0AA#0700090000008001
(1606743226.414421) can0 0A8#2200ABE902000000
(1606743226.414663) can0 0A7#1B000000FDFFFEFF
(1606743226.414907) can0 0A6#00000200FCFF0000
(1606743226.415147) can0 0A5#2B06050008009703
(1606743226.415394) can0 002#0000323B00000000
(1606743226.415644) can0 0A4#0000000000000000
(1606743226.415870) can0 0A3#EEB9D71EEEBDF71E
(1606743226.422252) can0 0AF#220113EE94FFA1FF
(1606743226.422498) can0 0AD#2800000000000000
(1606743226.422746) can0 0AC#000000007D020000
(1606743226.422996) can0 0AB#0000000000000040
(1606743226.423238) can0 0AA#0700090000008001
(1606743226.423482) can0 0A8#2200ABE9FDFFFEFF
(1606743226.423726) can0 0A7#19000000FAFFF7FF
(1606743226.423970) can0 0A6#0000FDFFF8FF0000
(1606743226.424212) can0 0A5#3E0608000C009C03
(1606743226.424462) can0 0A4#0000000000000000
(1606743226.424688) can0 0A3#EEB9D71EEFBDF71E
(1606743226.431192) can0 0AF#22028EFF1B000000
(1606743226.431438) can0 0AD#0E00000000000000
(1606743226.431686) can0 0AC#0000010080020000
(1606743226.431936) can0 0AB#0000000000000040
(1606743226.432178) can0 0AA#0700090000008001
(1606743226.432420) can0 0A8#2200ABE900000200
(1606743226.432660) can0 0A7#1B000000F3FFFCFF
(1606743226.432906) can0 0A6#FEFF020001000000
(1606743226.433144) can0 0A5#330601000200A303
(1606743226.433394) can0 0A4#0000000000000000
(1606743226.433620) can0 0A3#EEB9D71EEFBDF71E
(1606743226.436098) can0 01C#0000000001000000
(1606743226.440192) can0 0AF#2203000001000000
(1606743226.440436) can0 0AD#6E00000000000000
(1606743226.440686) can0 0AC#0000000083020000
(1606743226.440936) can0 0AB#0000000000000040
(1606743226.441178) can0 0AA#0700090000008001
(1606743226.441422) can0 0A8#2200ABE905000000
(1606743226.441666) can0 0A7#160000000000F9FF
(1606743226.441910) can0 0A6#02000200FFFF0000
(1606743226.442150) can0 0A5#DD05F5FFEDFF9903
(1606743226.442400) can0 0A4#0000000000000000
(1606743226.442628) can0 0A3#EEB9D71EEEBD071F
(1606743226.449196) can0 0AF#2204000000000000
(1606743226.449442) can0 0AD#0A00000000000000
(1606743226.449686) can0 0AC#0000010086020000
(1606743226.449936) can0 0AB#0000000000000040
(1606743226.450178) can0 0AA#0700090000008001
(1606743226.450421) can0 0A8#2200ABE900000200
(1606743226.450666) can0 0A7#18000000FFFFF7FF
(1606743226.450912) can0 0A6#FEFF020001000000
(1606743226.451152) can0 0A5#1106040005009603
(1606743226.451402) can0 0A4#0000000000000000
(1606743226.451630) can0 0A3#EEB9D71EEEBD071F
(1606743226.452194) can0 079#0000000000000000
(1606743226.458190) can0 0AF#22059A0400000000
(1606743226.458436) can0 0AD#0A00000000000000
(1606743226.458684) can0 0AC#0000FFFF89020000
(1606743226.458934) can0 0AB#0000000000000040
(1606743226.459175) can0 0AA#0700090000008001
(1606743226.459415) can0 0A8#2200ABE90200FEFF
(1606743226.459661) can0 0A7#180000000400F7FF
(1606743226.459906) can0 0A6#02000000FCFF0000
(1606743226.460141) can0 0A5#DE05F8FFF2FF8903
(1606743226.460392) can0 0A4#0000000000000000
(1606743226.460617) can0 0A3#EEB9D71EEEB9071F
(1606743226.467333) can0 0AF#23000D020D0213EE
(1606743226.467580) can0 0AD#9D00000000000000
(1606743226.467828) can0 0AC#000000008C020000
(1606743226.468078) can0 0AB#0000000000000040
(1606743226.468320) can0 0AA#0700090000008001
(1606743226.468562) can0 0A8#2200ABE900000000
(1606743226.468810) can0 0A7#1800000000000000
(1606743226.469058) can0 0A6#00000000FCFF0000
(1606743226.469292) can0 0A5#6705E5FFD3FF6D03
(1606743226.469542) can0 0A4#0000000000000000
(1606743226.469770) can0 0A3#EEB9D71EEEBD071F
(1606743226.476182) can0 0AF#230113EE97FFA6FF
(1606743226.476430) can0 0AD#7000000000000000
(1606743226.476676) can0 0AC#000000008F020000
(1606743226.476926) can0 0AB#0000000000000040
(1606743226.477168) can0 0AA#0700090000008001
(1606743226.477408) can0 0A8#2200ABE90200FFFF
(1606743226.477650) can0 0A7#19000000FAFFFCFF
(1606743226.477898) can0 0A6#0200000001000000
(1606743226.478134) can0 0A5#6305EFFFE3FF5503
(1606743226.478384) can0 0A4#0000000000000000
(1606743226.478612) can0 0A3#EEB9D71EEEBD071F
(1606743226.485183) can0 0AF#230290FF1A000000
(1606743226.485431) can0 0AD#3100000000000000
(1606743226.485678) can0 0AC#0000000092020000
(1606743226.485927) can0 0AB#0000000000000040
(1606743226.486170) can0 0AA#0700090000008001
(1606743226.486409) can0 0A8#2200ABE90200FFFF
(1606743226.486658) can0 0A7#1A000000FFFFF7FF
(1606743226.486905) can0 0A6#02000000FFFF0000
(1606743226.487142) can0 0A5#6B05FAFFF5FF4003
(1606743226.487391) can0 0A4#0000000000000000
(1606743226.487620) can0 0A3#EEB9D71EEEBD071F
(1606743226.490520) can0 037#0000C35F00000301
(1606743226.492027) can0 0C0#0000000001000000
(1606743226.494253) can0 0AF#2303000001000000
(1606743226.494491) can0 0AE#1000B41911051820
(1606743226.494737) can0 0AD#0600000000000000
(1606743226.494985) can0 0AC#0000000095020000
(1606743226.495235) can0 0AB#0000000000000040
(1606743226.495477) can0 0AA#0700090000008001
(1606743226.495713) can0 0A9#9700FB00FF019604
(1606743226.495957) can0 0A8#2200ABE9F7FF0000
(1606743226.496199) can0 0A7#1B000000FDFFF9FF
(1606743226.496447) can0 0A6#FBFFFDFF04000000
(1606743226.496683) can0 0A5#7905F9FFF3FF2E03
(1606743226.496933) can0 0A4#0000000000000000
(1606743226.497161) can0 0A3#EEB9D71EEEBD071F
(1606743226.497393) can0 0A2#F0D8F0D865050000
(1606743226.497619) can0 0A1#B30049083908F0D8
(1606743226.497853) can0 0A0#CD00D000CF00B100
(1606743226.503251) can0 0AF#2304000000000000
(1606743226.503501) can0 0AD#2400000000000000
(1606743226.503751) can0 0AC#0000000098020000
(1606743226.504001) can0 0AB#0000000000000040
(1606743226.504243) can0 0AA#0700090000008001
(1606743226.504487) can0 0A8#2200ABE900000000
(1606743226.504729) can0 0A7#1A0000000000FCFF
(1606743226.504981) can0 0A6#00000000FFFF0000
(1606743226.505215) can0 0A5#B70509000F001503
(1606743226.505465) can0 0A4#0000000000000000
(1606743226.505691) can0 0A3#EEB9E71EEEBDF71E
(1606743226.512249) can0 0AF#23059A0400000000
(1606743226.512495) can0 0AD#2500000000000000
(1606743226.512741) can0 0AC#000000009B020000
(1606743226.512991) can0 0AB#0000000000000040
(1606743226.513233) can0 0AA#0700090000008001
(1606743226.513475) can0 0A8#2200ABE900000000
(1606743226.513717) can0 0A7#19000000FFFFF9FF
(1606743226.513969) can0 0A6#00000000FFFF0000
(1606743226.514209) can0 0A5#AE05FFFFFEFF1003
(1606743226.514456) can0 002#0000323B00000000
(1606743226.514706) can0 0A4#0000000000000000
(1606743226.514932) can0 0A3#EEB9E71EEEBDF71E
(1606743226.521244) can0 0AF#24000D020D0213EE
(1606743226.521490) can0 0AD#0500000000000000
(1606743226.521736) can0 0AC#000000009E020000
(1606743226.521986) can0 0AB#0000000000000040
(1606743226.522228) can0 0AA#0700090000008001
(1606743226.522472) can0 0A8#2200ABE905000000
(1606743226.522714) can0 0A7#1B000000FAFFF9FF
(1606743226.522958) can0 0A6#02000200FFFF0000
(1606743226.523198) can0 0A5#BE05020003000F03
(1606743226.523448) can0 0A4#0000000000000000
(1606743226.523674) can0 0A3#EEB9E71EEEBD071F
(1606743226.530330) can0 0AF#240113EE94FFA3FF
(1606743226.530578) can0 0AD#1A00000000000000
(1606743226.530826) can0 0AC#00000000A1020000
(1606743226.531074) can0 0AB#0000000000000040
(1606743226.531312) can0 0AA#0700090800008001
(1606743226.531550) can0 0A8#2200ABE908000100
(1606743226.531792) can0 0A7#19000000F6FFF7FF
(1606743226.532034) can0 0A6#0500020010000000
(1606743226.532272) can0 0A5#BC05030004000803
(1606743226.532522) can0 0A4#0000000000000000
(1606743226.532748) can0 0A3#EEB9E71EEEBD071F
(1606743226.537732) can0 01C#0000000001000000
(1606743226.539242) can0 0AF#24028EFF1A000000
(1606743226.539487) can0 0AD#4D00000000000000
(1606743226.539732) can0 0AC#00000000A4020000
(1606743226.539982) can0 0AB#0000000000000040
(1606743226.540220) can0 0AA#0700090800008001
(1606743226.540464) can0 0A8#2200ABE9F7FF0000
