(1606742409.311817) can0 079#0000000000000000
(1606742409.320280) can0 01C#0000000001000000
(1606742409.320642) can0 002#00007B3B00000000
(1606742409.324583) can0 0C0#0000000001000000
(1606742409.327522) can0 037#0000C35F00000301
(1606742409.414578) can0 079#0000000000000000
(1606742409.419941) can0 002#0000003B00000000
(1606742409.421919) can0 01C#0000000001000000
(1606742409.422985) can0 0AD#8100000000000000
(1606742409.423231) can0 0AC#000082FF04000000
(1606742409.423481) can0 0AB#0000000000000000
(1606742409.423725) can0 0AA#0000090000008000
(1606742409.423965) can0 0A8#2200ABE9030009FF
(1606742409.424207) can0 0A7#1A000D00FDFFF5FF
(1606742409.424443) can0 0A6#7BFF8EFF6DFF0000
(1606742409.424677) can0 0A5#360213001F00DED0
(1606742409.424927) can0 0A4#0000000000000000
(1606742409.425157) can0 0A3#EE01D01EEEB9F71E
(1606742409.432049) can0 0AD#2200000000000000
(1606742409.432299) can0 0AC#000087FF07000000
(1606742409.432549) can0 0AB#0000000000000000
(1606742409.432793) can0 0AA#0000090000008000
(1606742409.433035) can0 0A8#2200ABE9100011FF
(1606742409.433277) can0 0A7#19000200FFFFF5FF
(1606742409.433513) can0 0A6#80FF91FF78FF0000
(1606742409.433755) can0 0A5#18020000000086FD
(1606742409.434005) can0 0A4#0000000000000000
(1606742409.434229) can0 0A3#EEB9D71EEEB9F71E
(1606742409.434480) can0 0C0#0000000001000000
(1606742409.436917) can0 037#0000C35F00000301
(1606742409.441047) can0 0AD#0300000000000000
(1606742409.441289) can0 0AC#00008CFF0A000000
(1606742409.441539) can0 0AB#0000000000000000
(1606742409.441781) can0 0AA#0000090000008001
(1606742409.442017) can0 0A8#2200ABE914001CFF
(1606742409.442261) can0 0A7#1A000000FAFFF7FF
(1606742409.442503) can0 0A6#87FF95FF82FF0000
(1606742409.442747) can0 0A5#1002FFFFFEFFB827
(1606742409.442996) can0 0A4#0000000000000000
(1606742409.443220) can0 0A3#EEB9D71EEEB9F71E
(1606742409.450051) can0 0AD#0200000000000000
(1606742409.450293) can0 0AC#000091FF0D000000
(1606742409.450543) can0 0AB#0000000000000000
(1606742409.450785) can0 0AA#0000090000008001
(1606742409.451023) can0 0A8#2200ABE90C002EFF
(1606742409.451267) can0 0A7#1E000000FAFFF0FF
(1606742409.451505) can0 0A6#8BFFA3FF86FF0000
(1606742409.451745) can0 0A5#0E0200000000984F
(1606742409.451995) can0 0A4#0000000000000000
(1606742409.452219) can0 0A3#EEB9D71EEEB9F71E
(1606742409.459051) can0 0AD#0100000000000000
(1606742409.459295) can0 0AC#00009AFF10000000
(1606742409.459545) can0 0AB#0000000000000000
(1606742409.459787) can0 0AA#0000090000008001
(1606742409.460025) can0 0A8#2200ABE90D0036FF
(1606742409.460267) can0 0A7#18000000F6FF0000
(1606742409.460503) can0 0A6#94FFA3FF90FF0000
(1606742409.460741) can0 0A5#0D02000000004675
(1606742409.460991) can0 0A4#0000000000000000
(1606742409.461215) can0 0A3#EEB9D71EEEB9F71E
(1606742409.468047) can0 0AD#0000000000000000
(1606742409.468291) can0 0AC#0000A3FF13000000
(1606742409.468541) can0 0AB#0000000000000000
(1606742409.468783) can0 0AA#0000090000008001
(1606742409.469017) can0 0A8#2200ABE9110046FF
(1606742409.469263) can0 0A7#1A0000000400FCFF
(1606742409.469500) can0 0A6#9DFFA8FFA5FF0000
(1606742409.469738) can0 0A5#0D0200000000DE98
(1606742409.469988) can0 0A4#0000000000000000
(1606742409.470212) can0 0A3#EEB9D71EEEB9F71E
(1606742409.477212) can0 0AF#00000D020D0222F2
(1606742409.477458) can0 0AD#EC02000000000000
(1606742409.477704) can0 0AC#00003B0016000000
(1606742409.477954) can0 0AB#0000000000000040
(1606742409.478196) can0 0AA#0700090000008001
(1606742409.478436) can0 0A8#2200ABE977FF7300
(1606742409.478680) can0 0A7#1A000000F8FFF9FF
(1606742409.478918) can0 0A6#A3FFB2FF9CFF0000
(1606742409.479150) can0 0A5#4F07C8004E0178BB
(1606742409.479400) can0 0A4#0000000000000000
(1606742409.479624) can0 0A3#EEB9D71EEEB9F71E
(1606742409.486052) can0 0AF#000122F295FFA1FF
(1606742409.486298) can0 0AD#4003000000000000
(1606742409.486546) can0 0AC#00003B0019000000
(1606742409.486796) can0 0AB#0000000000000040
(1606742409.487038) can0 0AA#0700090000008001
(1606742409.487276) can0 0A8#2200ABE97CFF7300
(1606742409.487522) can0 0A7#190000000000F5FF
(1606742409.487758) can0 0A6#A5FFACFFA2FF0000
(1606742409.487995) can0 0A5#6C07300050005EDB
(1606742409.488244) can0 0A4#0000000000000000
(1606742409.488468) can0 0A3#EEB9D71EEEB9F71E
(1606742409.495058) can0 0AF#00027FFF18000000
(1606742409.495304) can0 0AD#2900000000000000
(1606742409.495554) can0 0AC#000020001C000000
(1606742409.495804) can0 0AB#0000000000000040
(1606742409.496046) can0 0AA#0700090000008001
(1606742409.496284) can0 0A8#2200ABE973FF3F00
(1606742409.496530) can0 0A7#1C000000FFFFF7FF
(1606742409.496770) can0 0A6#ADFFB9FFA4FF0000
(1606742409.497010) can0 0A5#B90600000000C8F9
(1606742409.497260) can0 0A4#0000000000000000
(1606742409.497484) can0 0A3#EDB9D71EEEB9F71E
(1606742409.504052) can0 0AF#0003000001000000
(1606742409.504298) can0 0AD#0900000000000000
(1606742409.504548) can0 0AC#00001A001F000000
(1606742409.504798) can0 0AB#0000000000000040
(1606742409.505040) can0 0AA#0700090000008001
(1606742409.505276) can0 0A8#2200ABE972FF3400
(1606742409.505520) can0 0A7#1A0000000000F7FF
(1606742409.505756) can0 0A6#AEFFB9FFA9FF0000
(1606742409.505990) can0 0A5#8E06F7FFF1FF8B16
(1606742409.506240) can0 0A4#0000000000000000
(1606742409.506464) can0 0A3#EEB9D71EEEB9F71E
(1606742409.513060) can0 0AF#0004000000000000
(1606742409.513298) can0 0AE#1000B41911051820
(1606742409.513544) can0 0AD#8C00000000000000
(1606742409.513790) can0 0AC#0000270022000000
(1606742409.514040) can0 0AB#0000000000000040
(1606742409.514282) can0 0AA#0700090000008001
(1606742409.514520) can0 0A9#9700FB00FF019C04
(1606742409.514758) can0 0A8#2200ABE987FF4C00
(1606742409.515000) can0 0A7#1C000000FAFFF9FF
(1606742409.515240) can0 0A6#B1FFC1FFB1FF0000
(1606742409.515491) can0 079#0000000000000000
(1606742409.515727) can0 0A5#FB060A001000BC31
(1606742409.515977) can0 0A4#0000000000000000
(1606742409.516201) can0 0A3#EEB9D71EEEB9F71E
(1606742409.516433) can0 0A2#F0D8F0D865050000
(1606742409.516667) can0 0A1#B3001C081208F0D8
(1606742409.516905) can0 0A0#700070007000B300
(1606742409.521697) can0 002#0000263B00000000
(1606742409.521950) can0 01C#0000000001000000
(1606742409.522194) can0 0AF#00059B0400000000
(1606742409.522442) can0 0AD#0C00000000000000
(1606742409.522688) can0 0AC#00001B0025000000
(1606742409.522938) can0 0AB#0000000000000040
(1606742409.523180) can0 0AA#0700090000008001
(1606742409.523420) can0 0A8#2200ABE983FF3600
(1606742409.523664) can0 0A7#1C000000FAFFF5FF
(1606742409.523902) can0 0A6#B4FFC4FFB2FF0000
(1606742409.524134) can0 0A5#A306F0FFE5FF704B
(1606742409.524384) can0 0A4#0000000000000000
(1606742409.524608) can0 0A3#EDB9D71EEEB9F71E
(1606742409.531106) can0 0AF#01000D020D0222F2
(1606742409.531352) can0 0AD#1D00000000000000
(1606742409.531600) can0 0AC#00001B0028000000
(1606742409.531850) can0 0AB#0000000000000040
(1606742409.532092) can0 0AA#0700090000008001
(1606742409.532332) can0 0A8#2200ABE988FF3600
(1606742409.532576) can0 0A7#1A000000FFFFFCFF
(1606742409.532816) can0 0A6#B6FFC7FFB7FF0000
(1606742409.533048) can0 0A5#A406F9FFF4FFB363
(1606742409.533298) can0 0A4#0000000000000000
(1606742409.533522) can0 0A3#EDB9D71EEEB9F71E
(1606742409.540186) can0 0AF#010122F292FFA4FF
(1606742409.540434) can0 0AD#5F00000000000000
(1606742409.540680) can0 0AC#000017002B000000
(1606742409.540929) can0 0AB#0000000000000040
(1606742409.541171) can0 0AA#0700090000008001
(1606742409.541409) can0 0A8#2200ABE98DFF2D00
(1606742409.541651) can0 0A7#19000000F8FFF9FF
(1606742409.541891) can0 0A6#BCFFC8FFC9FF0000
(1606742409.542127) can0 0A5#960602000200D57A
(1606742409.542377) can0 0A4#0000000000000000
(1606742409.542601) can0 0A3#EEB9D71EEEB9F71E
(1606742409.542853) can0 0C0#0000000001000000
(1606742409.544495) can0 037#0000C35E00000301
(1606742409.549041) can0 0AF#010285FF1B000000
(1606742409.549287) can0 0AD#0900000000000000
(1606742409.549535) can0 0AC#000017002E000000
(1606742409.549785) can0 0AB#0000000000000040
(1606742409.550027) can0 0AA#0700090000008001
(1606742409.550261) can0 0A8#2200ABE99AFF2D00
(1606742409.550507) can0 0A7#1C000000FDFFF5FF
(1606742409.550747) can0 0A6#C6FFCBFFB8FF0000
(1606742409.550979) can0 0A5#BC0611001D004C90
(1606742409.551229) can0 0A4#0000000000000000
(1606742409.551453) can0 0A3#EEB9D71EEEB9F71E
(1606742409.558049) can0 0AF#0103000001000000
(1606742409.558295) can0 0AD#4E00000000000000
(1606742409.558541) can0 0AC#00000D0031000000
(1606742409.558791) can0 0AB#0000000000000040
(1606742409.559033) can0 0AA#0700090000008001
(1606742409.559267) can0 0A8#2200ABE99AFF1900
(1606742409.559509) can0 0A7#19000000FDFFF9FF
(1606742409.559747) can0 0A6#C6FFD1FFC2FF0000
(1606742409.559979) can0 0A5#4906F2FFE9FFC5A4
(1606742409.560229) can0 0A4#0000000000000000
(1606742409.560453) can0 0A3#EEB9D71EEEB9F71E
(1606742409.567049) can0 0AF#0104000000000000
(1606742409.567295) can0 0AD#0700000000000000
(1606742409.567543) can0 0AC#00000F0034000000
(1606742409.567793) can0 0AB#0000000000000040
(1606742409.568035) can0 0AA#0700090000008001
(1606742409.568273) can0 0A8#2200ABE99EFF1D00
(1606742409.568523) can0 0A7#1B0000000000F9FF
(1606742409.568761) can0 0A6#CAFFD1FFC8FF0000
(1606742409.568997) can0 0A5#6D06010001001AB8
(1606742409.569247) can0 0A4#0000000000000000
(1606742409.569471) can0 0A3#EDB9D71EEEB9F71E
(1606742409.576041) can0 0AF#01059B0400000000
(1606742409.576287) can0 0AD#2500000000000000
(1606742409.576531) can0 0AC#00000D0037000000
(1606742409.576781) can0 0AB#0000000000000040
(1606742409.577023) can0 0AA#0700090000008001
(1606742409.577259) can0 0A8#2200ABE9A1FF1A00
(1606742409.577507) can0 0A7#1B000000FFFFFCFF
(1606742409.577747) can0 0A6#CCFFD0FFC8FF0000
(1606742409.577983) can0 0A5#6906FBFFF7FF63CA
(1606742409.578233) can0 0A4#0000000000000000
(1606742409.578457) can0 0A3#EDB9D71EEEB9F71E
(1606742409.585039) can0 0AF#02000D020D0223F2
(1606742409.585283) can0 0AD#7600000000000000
(1606742409.585531) can0 0AC#000000003A000000
(1606742409.585781) can0 0AB#0000000000000040
(1606742409.586023) can0 0AA#0700090000008001
(1606742409.586261) can0 0A8#2200ABE9A5FF0000
(1606742409.586503) can0 0A7#19000000FAFFF9FF
(1606742409.586741) can0 0A6#D2FFD3FFCEFF0000
(1606742409.586975) can0 0A5#D605DBFFC3FFA6DB
(1606742409.587225) can0 0A4#0000000000000000
(1606742409.587449) can0 0A3#EEB9D71EEEB9F71E
(1606742409.594029) can0 0AF#020122F292FF9EFF
(1606742409.594273) can0 0AD#D200000000000000
(1606742409.594517) can0 0AC#0000FEFF3D000000
(1606742409.594767) can0 0AB#0000000000000040
(1606742409.595009) can0 0AA#0700090000008001
(1606742409.595247) can0 0A8#2200ABE9ADFFFBFF
(1606742409.595489) can0 0A7#1D000000FFFFEEFF
(1606742409.595727) can0 0A6#D8FFD5FFD4FF0000
(1606742409.595967) can0 0A5#C805F6FFEFFFE1EB
(1606742409.596217) can0 0A4#0000000000000000
(1606742409.596441) can0 0A3#EEB9D71EEEB9F71E
(1606742409.603181) can0 0AF#02028BFF1B000000
(1606742409.603427) can0 0AD#2900000000000000
(1606742409.603677) can0 0AC#0000000040000000
(1606742409.603927) can0 0AB#0000000000000040
(1606742409.604169) can0 0AA#0700090000008001
(1606742409.604411) can0 0A8#2200ABE9B1FF0000
(1606742409.604657) can0 0A7#180000000000F7FF
(1606742409.604897) can0 0A6#D5FFDDFFD7FF0000
(1606742409.605133) can0 0A5#C205F7FFF1FF67FB
(1606742409.605383) can0 0A4#0000000000000000
(1606742409.605607) can0 0A3#EEB9D71EEEB9F71E
(1606742409.612039) can0 0AF#0203000001000000
(1606742409.612277) can0 0AE#1000B41911051820
(1606742409.612525) can0 0AD#3D00000000000000
(1606742409.612771) can0 0AC#0000050043000000
(1606742409.613021) can0 0AB#0000000000000040
(1606742409.613263) can0 0AA#0700090000008001
(1606742409.613499) can0 0A9#9700FB00FF019704
(1606742409.613733) can0 0A8#2200ABE9B4FF0A00
(1606742409.613975) can0 0A7#19000000FAFFF5FF
(1606742409.614215) can0 0A6#D7FFDCFFD3FF0000
(1606742409.614453) can0 0A5#1A060F001900D609
(1606742409.614703) can0 0A4#0000000000000000
(1606742409.614927) can0 0A3#EEB9D71EEEB9F71E
(1606742409.615159) can0 0A2#F0D8F0D865050000
(1606742409.615385) can0 0A1#B30049083908F0D8
(1606742409.615617) can0 0A0#AF00AF00AF00B100
(1606742409.618042) can0 079#0000000000000000
(1606742409.620373) can0 002#00002F3B00000000
(1606742409.621037) can0 0AF#0204000000000000
(1606742409.621285) can0 0AD#3B00000000000000
(1606742409.621529) can0 0AC#0000050046000000
(1606742409.621779) can0 0AB#0000000000000040
(1606742409.622021) can0 0AA#0700090000008001
(1606742409.622261) can0 0A8#2200ABE9BBFF0B00
(1606742409.622505) can0 0A7#1A000000FAFFF7FF
(1606742409.622745) can0 0A6#D6FFE4FFD8FF0000
(1606742409.622987) can0 0A5#FD050000FFFF9217
(1606742409.623237) can0 0A4#0000000000000000
(1606742409.623461) can0 0A3#EEB9D71EEEB9F71E
(1606742409.623715) can0 01C#0000000001000000
(1606742409.630031) can0 0AF#02059B0400000000
(1606742409.630277) can0 0AD#4300000000000000
(1606742409.630525) can0 0AC#0000080049000000
(1606742409.630775) can0 0AB#0000000000000040
(1606742409.631012) can0 0AA#0700090800008001
(1606742409.631252) can0 0A8#2200ABE9C1FF1000
(1606742409.631494) can0 0A7#1B000000FDFFF9FF
(1606742409.631734) can0 0A6#DBFFE3FFDBFF0000
(1606742409.631970) can0 0A5#51060F0018009924
(1606742409.632220) can0 0A4#0000000000000000
(1606742409.632445) can0 0A3#EEB9D71EEEB9F71E
(1606742409.639089) can0 0AF#03000D020D0222F2
(1606742409.639333) can0 0AD#4B00000000000000
(1606742409.639579) can0 0AC#000006004C000000
(1606742409.639829) can0 0AB#0000000000000040
(1606742409.640066) can0 0AA#0700090800008001
(1606742409.640310) can0 0A8#2200ABE9C1FF0C00
(1606742409.640554) can0 0A7#1A000000FFFFFCFF
(1606742409.640794) can0 0A6#DDFFE2FFDDFF0000
(1606742409.641030) can0 0A5#3A06FAFFF6FFDC30
(1606742409.641280) can0 0A4#0000000000000000
(1606742409.641506) can0 0A3#EEB9D71EEEBDF71E
(1606742409.648022) can0 0AF#030122F295FFA4FF
(1606742409.648266) can0 0AD#A400000000000000
(1606742409.648510) can0 0AC#000003004F000000
(1606742409.648760) can0 0AB#0000000000000040
(1606742409.648998) can0 0AA#0700090800008001
(1606742409.649236) can0 0A8#2200ABE9C3FF0500
(1606742409.649484) can0 0A7#1B000000FFFFFCFF
(1606742409.649722) can0 0A6#DDFFE6FFD9FF0000
(1606742409.649960) can0 0A5#E005F4FFECFF783C
(1606742409.650210) can0 0A4#0000000000000000
(1606742409.650436) can0 0A3#EEB9D71EEEBDF71E
(1606742409.653447) can0 037#0000C35E00000301
(1606742409.654048) can0 0C0#0000000001000000
(1606742409.657024) can0 0AF#03028EFF19000000
(1606742409.657270) can0 0AD#3300000000000000
(1606742409.657518) can0 0AC#0000020052000000
(1606742409.657768) can0 0AB#0000000000000040
(1606742409.658006) can0 0AA#0700090800008001
(1606742409.658244) can0 0A8#2200ABE9C3FF0500
(1606742409.658486) can0 0A7#19000000F8FFF9FF
(1606742409.658728) can0 0A6#DEFFE5FFDBFF0000
(1606742409.658964) can0 0A5#EC05000000006C47
(1606742409.659214) can0 0A4#0000000000000000
(1606742409.659438) can0 0A3#EEB9D71EEEB9F71E
(1606742409.666174) can0 0AF#0303000001000000
(1606742409.666420) can0 0AD#8C00000000000000
(1606742409.666666) can0 0AC#0000FFFF55000000
(1606742409.666916) can0 0AB#0000000000000040
(1606742409.667154) can0 0AA#0700090800008001
(1606742409.667392) can0 0A8#2200ABE9C6FFFEFF
(1606742409.667635) can0 0A7#1C0000000200F9FF
(1606742409.667877) can0 0A6#E0FFE6FFD7FF0000
(1606742409.668113) can0 0A5#9D05F0FFE4FFD151
(1606742409.668363) can0 0A4#0000000000000000
(1606742409.668587) can0 0A3#EEB9D71EEEB9F71E
(1606742409.675030) can0 0AF#0304000000000000
(1606742409.675278) can0 0AD#0200000000000000
(1606742409.675528) can0 0AC#0000000058000000
(1606742409.675778) can0 0AB#0000000000000040
(1606742409.676016) can0 0AA#0700090800008001
(1606742409.676258) can0 0A8#2200ABE9CFFF0000
(1606742409.676507) can0 0A7#1A000000FFFFF7FF
(1606742409.676744) can0 0A6#E8FFE8FFE4FF0000
(1606742409.676982) can0 0A5#E105040006007F5B
(1606742409.677232) can0 0A4#0000000000000000
(1606742409.677458) can0 0A3#EEB9D71EEEB9071F
(1606742409.684022) can0 0AF#03059B0400000000
(1606742409.684270) can0 0AD#1900000000000000
(1606742409.684516) can0 0AC#0000FFFF5B000000
(1606742409.684766) can0 0AB#0000000000000040
(1606742409.685004) can0 0AA#0700090800008001
(1606742409.685242) can0 0A8#2200ABE9CFFFFEFF
(1606742409.685487) can0 0A7#19000000FFFFF7FF
(1606742409.685726) can0 0A6#E6FFE9FFE6FF0000
(1606742409.685962) can0 0A5#B105F4FFECFFBE64
(1606742409.686212) can0 0A4#0000000000000000
(1606742409.686438) can0 0A3#EEB9D71EEEB9071F
(1606742409.693016) can0 0AF#04000D020D0222F2
(1606742409.693260) can0 0AD#4200000000000000
(1606742409.693508) can0 0AC#000000005E000000
(1606742409.693757) can0 0AB#0000000000000040
(1606742409.693995) can0 0AA#0700090800008001
(1606742409.694235) can0 0A8#2200ABE9D5FF0100
(1606742409.694479) can0 0A7#1A000000FDFFF7FF
(1606742409.694717) can0 0A6#EBFFEBFFE5FF0000
(1606742409.694953) can0 0A5#F305010002007F6D
(1606742409.695203) can0 0A4#0000000000000000
(1606742409.695427) can0 0A3#EEB9D71EEEB9F71E
(1606742409.702013) can0 0AF#040122F292FFA1FF
(1606742409.702259) can0 0AD#2100000000000000
(1606742409.702505) can0 0AC#0000010061000000
(1606742409.702755) can0 0AB#0000000000000040
(1606742409.702993) can0 0AA#0700090800008001
(1606742409.703233) can0 0A8#2200ABE9D7FF0200
(1606742409.703479) can0 0A7#18000000FDFFF5FF
(1606742409.703717) can0 0A6#ECFFEBFFE6FF0000
(1606742409.703955) can0 0A5#000602000300CB75
(1606742409.704205) can0 0A4#0000000000000000
(1606742409.704429) can0 0A3#EEB9D71EEEB9F71E
(1606742409.711019) can0 0AF#040288FF18000000
(1606742409.711257) can0 0AE#1000B41911051820
(1606742409.711503) can0 0AD#4E00000000000000
(1606742409.711751) can0 0AC#0000020064000000
(1606742409.712001) can0 0AB#0000000000000040
(1606742409.712239) can0 0AA#0700090800008001
(1606742409.712475) can0 0A9#9700FB00FF019304
(1606742409.712711) can0 0A8#2200ABE9DAFF0500
(1606742409.712953) can0 0A7#1D000000FDFFF3FF
(1606742409.713193) can0 0A6#EAFFF0FFEBFF0000
(1606742409.713433) can0 0A5#FE05F3FFEBFF947D
(1606742409.713683) can0 0A4#0000000000000000
(1606742409.713909) can0 0A3#EEB9D71EEEB9071F
(1606742409.714141) can0 0A2#F0D8F0D865050000
(1606742409.714367) can0 0A1#B10049083908F0D8
(1606742409.714603) can0 0A0#CD00D000CF00B300
(1606742409.718806) can0 079#0000000000000000
(1606742409.720016) can0 0AF#0403000001000000
(1606742409.720262) can0 0AD#3A00000000000000
(1606742409.720509) can0 0AC#0000040067000000
(1606742409.720758) can0 0AB#0000000000000040
(1606742409.720996) can0 0AA#0700090800008001
(1606742409.721232) can0 0A8#2200ABE9D1FF0800
(1606742409.721474) can0 0A7#18000000FAFF0300
(1606742409.721716) can0 0A6#E5FFEBFFECFF0000
(1606742409.721952) can0 0A5#20060D001600F684
(1606742409.722202) can0 0A4#0000000000000000
(1606742409.722428) can0 0A3#EEB9D71EEEB9071F
(1606742409.722675) can0 002#0000323B00000000
(1606742409.723672) can0 01C#0000000001000000
(1606742409.729166) can0 0AF#0404000000000000
(1606742409.729412) can0 0AD#BF00000000000000
(1606742409.729658) can0 0AC#000004006A000000
(1606742409.729910) can0 0AB#0000000000000040
(1606742409.730146) can0 0AA#0700090800008001
(1606742409.730386) can0 0A8#2200ABE9E2FF0800
(1606742409.730630) can0 0A7#1A000000FDFFF7FF
(1606742409.730870) can0 0A6#F0FFF2FFE8FF0000
(1606742409.731102) can0 0A5#5B06FEFFFCFF098C
(1606742409.731352) can0 0A4#0000000000000000
(1606742409.731576) can0 0A3#EEB9D71EEEB9F71E
(1606742409.738012) can0 0AF#04059B0400000000
(1606742409.738256) can0 0AD#6600000000000000
(1606742409.738502) can0 0AC#000001006D000000
(1606742409.738752) can0 0AB#0000000000000040
(1606742409.738990) can0 0AA#0700090800008001
(1606742409.739232) can0 0A8#2200ABE9E3FF0200
(1606742409.739478) can0 0A7#180000000000F7FF
(1606742409.739718) can0 0A6#F0FFF3FFEBFF0000
(1606742409.739954) can0 0A5#0306F4FFEBFF9692
(1606742409.740204) can0 0A4#0000000000000000
(1606742409.740428) can0 0A3#EEB9D71EEEB9F71E
(1606742409.747011) can0 0AF#05000D020D0222F2
(1606742409.747256) can0 0AD#2C00000000000000
(1606742409.747502) can0 0AC#0000040070000000
(1606742409.747752) can0 0AB#0000000000000040
(1606742409.747990) can0 0AA#0700090800008001
(1606742409.748228) can0 0A8#2200ABE9D7FF0800
(1606742409.748472) can0 0A7#19000000FFFFF7FF
(1606742409.748711) can0 0A6#E8FFEDFFF2FF0000
(1606742409.748948) can0 0A5#300604000600D298
(1606742409.749198) can0 0A4#0000000000000000
(1606742409.749422) can0 0A3#EEB9D71EEEB9F71E
(1606742409.756002) can0 0AF#050122F292FFA4FF
(1606742409.756250) can0 0AD#6400000000000000
(1606742409.756494) can0 0AC#0000050073000000
(1606742409.756744) can0 0AB#0000000000000040
(1606742409.756982) can0 0AA#0700090800008001
(1606742409.757220) can0 0A8#2200ABE9E0FF0A00
(1606742409.757464) can0 0A7#19000000FFFFF7FF
(1606742409.757704) can0 0A6#EDFFF1FFF0FF0000
(1606742409.757938) can0 0A5#6C0602000300B99E
(1606742409.758188) can0 0A4#0000000000000000
(1606742409.758414) can0 0A3#EEB9D71EEEB9071F
(1606742409.762735) can0 037#0000C35E00000301
(1606742409.763336) can0 0C0#0000000001000000
(1606742409.765006) can0 0AF#05028EFF1A000000
(1606742409.765252) can0 0AD#4A00000000000000
(1606742409.765498) can0 0AC#0000040076000000
(1606742409.765748) can0 0AB#0000000000000040
(1606742409.765986) can0 0AA#0700090800008001
(1606742409.766222) can0 0A8#2200ABE9E4FF0800
(1606742409.766468) can0 0A7#1A0000000000F9FF
(1606742409.766712) can0 0A6#F0FFF2FFEBFF0000
(1606742409.766948) can0 0A5#85060000000050A4
(1606742409.767198) can0 0A4#0000000000000000
(1606742409.767424) can0 0A3#EEB9D71EEEB9071F
(1606742409.774010) can0 0AF#0503000001000000
(1606742409.774260) can0 0AD#3900000000000000
(1606742409.774506) can0 0AC#0000050079000000
(1606742409.774756) can0 0AB#0000000000000040
(1606742409.774998) can0 0AA#0700090000008001
(1606742409.775236) can0 0A8#2200ABE9E0FF0A00
(1606742409.775478) can0 0A7#19000000FAFFF9FF
(1606742409.775718) can0 0A6#EEFFF0FFEBFF0000
(1606742409.775952) can0 0A5#86060B00110096A9
(1606742409.776202) can0 0A4#0000000000000000
(1606742409.776426) can0 0A3#EEB9D71EEEB9F71E
(1606742409.783013) can0 0AF#0504000000000000
(1606742409.783260) can0 0AD#0C00000000000000
(1606742409.783508) can0 0AC#000001007C000000
(1606742409.783758) can0 0AB#0000000000000040
(1606742409.784000) can0 0AA#0700090000008001
(1606742409.784242) can0 0A8#2200ABE9F2FF0300
(1606742409.784484) can0 0A7#19000000FDFFFCFF
(1606742409.784724) can0 0A6#F8FFF9FFF0FF0000
(1606742409.784960) can0 0A5#6306FBFFF7FF90AE
(1606742409.785210) can0 0A4#0000000000000000
(1606742409.785436) can0 0A3#EEB9D71EEEBDF71E
(1606742409.792090) can0 0AF#05059B0400000000
(1606742409.792336) can0 0AD#2600000000000000
(1606742409.792584) can0 0AC#000003007F000000
(1606742409.792834) can0 0AB#0000000000000040
(1606742409.793076) can0 0AA#0700090000008001
(1606742409.793314) can0 0A8#2200ABE9EBFF0500
(1606742409.793558) can0 0A7#18000000FFFFFCFF
(1606742409.793800) can0 0A6#F3FFF8FFF0FF0000
(1606742409.794032) can0 0A5#4606FAFFF5FF4BB3
(1606742409.794282) can0 0A4#0000000000000000
(1606742409.794508) can0 0A3#EEB9D71EEEBDF71E
(1606742409.801000) can0 0AF#06000D020D0222F2
(1606742409.801246) can0 0AD#8A00000000000000
(1606742409.801496) can0 0AC#0000010082000000
(1606742409.801746) can0 0AB#0000000000000040
(1606742409.801988) can0 0AA#0700090000008001
(1606742409.802224) can0 0A8#2200ABE9ECFF0200
(1606742409.802466) can0 0A7#19000000FFFFFEFF
(1606742409.802704) can0 0A6#F4FFF8FFF6FF0000
(1606742409.802938) can0 0A5#F105EBFFDCFFB1B7
(1606742409.803188) can0 0A4#0000000000000000
(1606742409.803412) can0 0A3#EEBDD71EEEB9F71E
(1606742409.810000) can0 0AF#060122F297FFA3FF
(1606742409.810238) can0 0AE#1000B41911051820
(1606742409.810487) can0 0AD#1F00000000000000
(1606742409.810730) can0 0AC#0000010085000000
(1606742409.810980) can0 0AB#0000000000000040
(1606742409.811222) can0 0AA#0700090000008001
(1606742409.811458) can0 0A9#9700FB00FF019D04
(1606742409.811698) can0 0A8#2200ABE9EDFF0300
(1606742409.811942) can0 0A7#1B000000FFFFF9FF
(1606742409.812182) can0 0A6#F5FFF8FFF2FF0000
(1606742409.812416) can0 0A5#0D06F5FFEDFFDBBB
(1606742409.812666) can0 0A4#0000000000000000
(1606742409.812890) can0 0A3#EEBDD71EEEB9F71E
(1606742409.813122) can0 0A2#F0D8F0D865050000
(1606742409.813354) can0 0A1#B50049083908F0D8
(1606742409.813592) can0 0A0#CD00D000D000B200
(1606742409.819002) can0 0AF#06028DFF1C000000
(1606742409.819250) can0 0AD#1200000000000000
(1606742409.819498) can0 0AC#0000010088000000
(1606742409.819748) can0 0AB#0000000000000040
(1606742409.819990) can0 0AA#0700090000008001
(1606742409.820228) can0 0A8#2200ABE9E6FF0200
(1606742409.820472) can0 0A7#1B000000FFFFF9FF
(1606742409.820712) can0 0A6#F3FFF3FFF3FF0000
(1606742409.820948) can0 0A5#0A06F5FFEDFFDABF
(1606742409.821198) can0 0A4#0000000000000000
(1606742409.821424) can0 0A3#EEB9D71EEEB9071F
(1606742409.821671) can0 002#0000323B00000000
(1606742409.821922) can0 079#0000000000000000
(1606742409.825564) can0 01C#0000000001000000
(1606742409.828002) can0 0AF#0603000001000000
(1606742409.828248) can0 0AD#2900000000000000
(1606742409.828494) can0 0AC#0000FFFF8B000000
(1606742409.828744) can0 0AB#0000000000000040
(1606742409.828986) can0 0AA#0700090000008001
(1606742409.829226) can0 0A8#2200ABE9F8FFFEFF
(1606742409.829468) can0 0A7#19000000FAFFFCFF
(1606742409.829710) can0 0A6#FFFFFAFFF6FF0000
(1606742409.829948) can0 0A5#F605F3FFE9FF96C3
(1606742409.830198) can0 0A4#0000000000000000
(1606742409.830424) can0 0A3#EEB9D71EEEB9071F
(1606742409.837002) can0 0AF#0604000000000000
(1606742409.837248) can0 0AD#2100000000000000
(1606742409.837500) can0 0AC#000000008E000000
(1606742409.837750) can0 0AB#0000000000000040
(1606742409.837992) can0 0AA#0700090000008001
(1606742409.838230) can0 0A8#2200ABE9E8FFFFFF
(1606742409.838474) can0 0A7#1C000000FFFFFCFF
(1606742409.838712) can0 0A6#F6FFF1FFF6FF0000
(1606742409.838954) can0 0A5#0906000000001DC7
(1606742409.839204) can0 0A4#0000000000000000
(1606742409.839430) can0 0A3#EEB9D71EEEBDF71E
(1606742409.845996) can0 0AF#06059B0400000000
(1606742409.846242) can0 0AD#7900000000000000
(1606742409.846488) can0 0AC#0000000091000000
(1606742409.846738) can0 0AB#0000000000000040
(1606742409.846980) can0 0AA#0700090000008001
(1606742409.847222) can0 0A8#2200ABE9EBFF0000
(1606742409.847464) can0 0A7#1B000000FAFFF7FF
(1606742409.847706) can0 0A6#F7FFF5FFF7FF0000
(1606742409.847940) can0 0A5#F5050C00130073CA
(1606742409.848190) can0 0A4#0000000000000000
(1606742409.848417) can0 0A3#EEB9D71EEEBDF71E
(1606742409.855144) can0 0AF#07000D020D0265F2
(1606742409.855390) can0 0AD#5200000000000000
(1606742409.855636) can0 0AC#0000010094000000
(1606742409.855886) can0 0AB#0000000000000040
(1606742409.856128) can0 0AA#0700090000008001
(1606742409.856368) can0 0A8#2200ABE9F0FF0200
(1606742409.856610) can0 0A7#18000000FAFFFCFF
(1606742409.856850) can0 0A6#F8FFF8FFF1FF0000
(1606742409.857086) can0 0A5#3D0614002000A9CD
(1606742409.857336) can0 0A4#0000000000000000
(1606742409.857560) can0 0A3#EEB9D71EEEB9F71E
(1606742409.864054) can0 0AF#070165F294FFA9FF
(1606742409.864302) can0 0AD#2D00000000000000
(1606742409.864550) can0 0AC#0000FFFF97000000
(1606742409.864800) can0 0AB#0000000000000040
(1606742409.865042) can0 0AA#0700090000008001
(1606742409.865280) can0 0A8#2200ABE9EDFFFDFF
(1606742409.865526) can0 0A7#1A000000FFFFFEFF
(1606742409.865770) can0 0A6#FBFFF3FF08000000
(1606742409.866006) can0 0A5#180606000A008DD0
(1606742409.866256) can0 0A4#0000000000000000
(1606742409.866480) can0 0A3#EEB9D71EEEB9F71E
(1606742409.872000) can0 037#0000C35F00000301
(1606742409.872597) can0 0C0#0000000001000000
(1606742409.873055) can0 0AF#070290FF1B000000
(1606742409.873303) can0 0AD#1F00000000000000
(1606742409.873553) can0 0AC#000000009A000000
(1606742409.873803) can0 0AB#0000000000000040
(1606742409.874045) can0 0AA#0700090000008001
(1606742409.874285) can0 0A8#2200ABE9F4FF0000
(1606742409.874529) can0 0A7#19000000FAFFF7FF
(1606742409.874773) can0 0A6#FBFFF8FFFBFF0000
(1606742409.875011) can0 0A5#07060100010063D3
(1606742409.875261) can0 0A4#0000000000000000
(1606742409.875486) can0 0A3#EDB9D71EEEB9F71E
(1606742409.882061) can0 0AF#0703000001000000
(1606742409.882307) can0 0AD#2600000000000000
(1606742409.882553) can0 0AC#000002009D000000
(1606742409.882803) can0 0AB#0000000000000040
(1606742409.883045) can0 0AA#0700090000008001
(1606742409.883283) can0 0A8#2200ABE9F6FF0500
(1606742409.883525) can0 0A7#19000000FFFFFCFF
(1606742409.883765) can0 0A6#F6FFFFFFF8FF0000
(1606742409.883999) can0 0A5#F505F8FFF2FF01D6
(1606742409.884249) can0 0A4#0000000000000000
(1606742409.884472) can0 0A3#EDB9D71EEEB9F71E
(1606742409.891064) can0 0AF#0704000000000000
(1606742409.891312) can0 0AD#3B00000000000000
(1606742409.891560) can0 0AC#00000100A0000000
(1606742409.891810) can0 0AB#0000000000000040
(1606742409.892052) can0 0AA#0700090000008001
(1606742409.892292) can0 0A8#2200ABE9F0FF0100
(1606742409.892538) can0 0A7#1A000000FAFFF9FF
(1606742409.892780) can0 0A6#F9FFF7FFF6FF0000
(1606742409.893014) can0 0A5#45060B00110087D8
(1606742409.893264) can0 0A4#0000000000000000
(1606742409.893488) can0 0A3#EEB9D71EEEB9F71E
(1606742409.900060) can0 0AF#07059B0400000000
(1606742409.900304) can0 0AD#4D00000000000000
(1606742409.900552) can0 0AC#00000100A3000000
(1606742409.900802) can0 0AB#0000000000000040
(1606742409.901044) can0 0AA#0700090000008001
(1606742409.901284) can0 0A8#2200ABE9F1FF0300
(1606742409.901526) can0 0A7#19000000FAFFF9FF
(1606742409.901768) can0 0A6#FAFFF7FFF6FF0000
(1606742409.902002) can0 0A5#910620003400E9DA
(1606742409.902252) can0 0A4#0000000000000000
(1606742409.902478) can0 0A3#EEB9D71EEEBDF71E
(1606742409.909060) can0 0AF#08000D020D0266F2
(1606742409.909298) can0 0AE#1000B41911051820
(1606742409.909544) can0 0AD#4600000000000000
(1606742409.909792) can0 0AC#00000400A6000000
(1606742409.910042) can0 0AB#0000000000000040
(1606742409.910284) can0 0AA#0700090000008001
(1606742409.910521) can0 0A9#9700FB00FF019D04
(1606742409.910758) can0 0A8#2200ABE9F6FF0800
(1606742409.911006) can0 0A7#1A000000FFFFF3FF
(1606742409.911250) can0 0A6#FAFFFBFFF7FF0000
(1606742409.911486) can0 0A5#6306030005002ADD
(1606742409.911736) can0 0A4#0000000000000000
(1606742409.911962) can0 0A3#EEB9D71EEEBDF71E
(1606742409.912194) can0 0A2#F0D8F0D865050000
(1606742409.912421) can0 0A1#B30049083908F0D8
(1606742409.912656) can0 0A0#CD00CF00CF00B200
(1606742409.918144) can0 0AF#080165F294FFA3FF
(1606742409.918392) can0 0AD#A900000000000000
(1606742409.918638) can0 0AC#00000100A9000000
(1606742409.918888) can0 0AB#0000000000000040
(1606742409.919130) can0 0AA#0700090000008001
(1606742409.919372) can0 0A8#2200ABE9F8FF0100
(1606742409.919614) can0 0A7#1B000000F8FFF7FF
(1606742409.919860) can0 0A6#FBFFFEFFFBFF0000
(1606742409.920098) can0 0A5#FC05F7FFEFFF5BDF
(1606742409.920348) can0 0A4#0000000000000000
(1606742409.920595) can0 002#0000323B00000000
(1606742409.920821) can0 0A3#EEB9E71EEEB9071F
(1606742409.924367) can0 079#0000000000000000
(1606742409.927055) can0 0AF#08028DFF19000000
(1606742409.927303) can0 0AD#1E00000000000000
(1606742409.927556) can0 01C#0000000001000000
(1606742409.927802) can0 0AC#00000100AC000000
(1606742409.928052) can0 0AB#0000000000000040
(1606742409.928290) can0 0AA#0700090800008001
(1606742409.928530) can0 0A8#2200ABE9F3FF0200
(1606742409.928774) can0 0A7#1A000000F8FFF9FF
(1606742409.929018) can0 0A6#FBFFF8FFFBFF0000
(1606742409.929256) can0 0A5#FB05FCFFF8FF4FE1
(1606742409.929506) can0 0A4#0000000000000000
(1606742409.929732) can0 0A3#EEB9E71EEEB9071F
(1606742409.936060) can0 0AF#0803000001000000
(1606742409.936306) can0 0AD#3400000000000000
(1606742409.936552) can0 0AC#00000100AF000000
(1606742409.936802) can0 0AB#0000000000000040
(1606742409.937040) can0 0AA#0700090800008001
(1606742409.937280) can0 0A8#2200ABE9F3FF0200
(1606742409.937522) can0 0A7#1B000000FAFFF5FF
(1606742409.937762) can0 0A6#F8FFFBFFF8FF0000
(1606742409.938000) can0 0A5#1B06FFFFFCFF3BE3
(1606742409.938250) can0 0A4#0000000000000000
(1606742409.938474) can0 0A3#EDB9D71EEEB9F71E
(1606742409.945064) can0 0AF#0804000000000000
(1606742409.945314) can0 0AD#2400000000000000
(1606742409.945562) can0 0AC#00000000B2000000
(1606742409.945812) can0 0AB#0000000000000040
(1606742409.946050) can0 0AA#0700090800008001
(1606742409.946290) can0 0A8#2200ABE9F4FF0000
(1606742409.946532) can0 0A7#18000000F8FFFCFF
(1606742409.946776) can0 0A6#FBFFF8FFFEFF0000
(1606742409.947010) can0 0A5#4C060D000E0006E5
(1606742409.947260) can0 0A4#0000000000000000
(1606742409.947484) can0 0A3#EDB9D71EEEB9F71E
(1606742409.954058) can0 0AF#08059B0400000000
(1606742409.954306) can0 0AD#1F00000000000000
(1606742409.954554) can0 0AC#00000100B5000000
(1606742409.954804) can0 0AB#0000000000000040
(1606742409.955042) can0 0AA#0700090800008001
(1606742409.955284) can0 0A8#2200ABE9F5FF0200
(1606742409.955528) can0 0A7#1A000000FDFFFCFF
(1606742409.955772) can0 0A6#F9FFFBFFF9FF0000
(1606742409.956006) can0 0A5#220605000E00BDE6
(1606742409.956256) can0 0A4#0000000000000000
(1606742409.956482) can0 0A3#EEB9D71EEEB9071F
(1606742409.963056) can0 0AF#09000D020D0265F2
(1606742409.963300) can0 0AD#4800000000000000
(1606742409.963548) can0 0AC#00000000B8000000
(1606742409.963798) can0 0AB#0000000000000040
(1606742409.964036) can0 0AA#0700090800008001
(1606742409.964278) can0 0A8#2200ABE9F8FF0000
(1606742409.964520) can0 0A7#1B000000FAFFF7FF
(1606742409.964764) can0 0A6#FCFFFCFFFFFF0000
(1606742409.965000) can0 0A5#E305F0FFE6FF5DE8
(1606742409.965250) can0 0A4#0000000000000000
(1606742409.965476) can0 0A3#EEB9D71EEEBDF71E
(1606742409.972058) can0 0AF#090165F291FFA0FF
(1606742409.972304) can0 0AD#6100000000000000
(1606742409.972550) can0 0AC#00000000BB000000
(1606742409.972800) can0 0AB#0000000000000040
(1606742409.973038) can0 0AA#0700090800008001
(1606742409.973278) can0 0A8#2200ABE9FEFF0000
(1606742409.973524) can0 0A7#1E000000FFFFF7FF
(1606742409.973770) can0 0A6#FFFFFFFF00000000
(1606742409.974006) can0 0A5#8C061E003100E0E9
(1606742409.974256) can0 0A4#0000000000000000
(1606742409.974482) can0 0A3#EEB9D71EEEBDF71E
(1606742409.981146) can0 0AF#090293FF1A000000
(1606742409.981388) can0 037#0000C35F00000301
(1606742409.981634) can0 0AD#2B00000000000000
(1606742409.981886) can0 0AC#00000000BE000000
(1606742409.982136) can0 0AB#0000000000000040
(1606742409.982374) can0 0AA#0700090800008001
(1606742409.982616) can0 0A8#2200ABE9FBFFFFFF
(1606742409.982860) can0 0A7#1A000000FFFFF9FF
(1606742409.983106) can0 0A6#0000FCFF00000000
(1606742409.983340) can0 0A5#0F06FAFFF6FF4EEB
(1606742409.983590) can0 0A4#0000000000000000
(1606742409.983816) can0 0A3#EEB9D71EEFB9F71E
(1606742409.984067) can0 0C0#0000000001000000
(1606742409.990059) can0 0AF#0903000001000000
(1606742409.990303) can0 0AD#4200000000000000
(1606742409.990553) can0 0AC#00000000C1000000
(1606742409.990803) can0 0AB#0000000000000040
(1606742409.991041) can0 0AA#0700090800008001
(1606742409.991283) can0 0A8#2200ABE9FFFF0000
(1606742409.991525) can0 0A7#1B000000FAFFFEFF
(1606742409.991769) can0 0A6#0000FFFFFDFF0000
(1606742409.992001) can0 0A5#6D060E001600A9EC
(1606742409.992251) can0 0A4#0000000000000000
(1606742409.992475) can0 0A3#EEB9D71EEEB9F71E
(1606742409.999061) can0 0AF#0904000000000000
(1606742409.999307) can0 0AD#7900000000000000
(1606742409.999555) can0 0AC#00000100C4000000
(1606742409.999805) can0 0AB#0000000000000040
(1606742410.000043) can0 0AA#0700090800008001
(1606742410.000281) can0 0A8#2200ABE9F4FF0300
(1606742410.000526) can0 0A7#1A000000FDFFF9FF
(1606742410.000769) can0 0A6#FAFFFAFFFBFF0000
(1606742410.001005) can0 0A5#930608000E00F2ED
(1606742410.001255) can0 0A4#0000000000000000
(1606742410.001481) can0 0A3#EEB9D71EEEB9071F
(1606742410.008055) can0 0AF#09059B0400000000
(1606742410.008293) can0 0AE#1000B41911051820
(1606742410.008541) can0 0AD#0200000000000000
(1606742410.008785) can0 0AC#00000100C7000000
(1606742410.009035) can0 0AB#0000000000000040
(1606742410.009273) can0 0AA#0700090800008001
(1606742410.009509) can0 0A9#9700FA00FF019A04
(1606742410.009749) can0 0A8#2200ABE9FDFF0200
(1606742410.009991) can0 0A7#18000000F8FFFCFF
(1606742410.010233) can0 0A6#FDFF0000EFFF0000
(1606742410.010475) can0 0A5#7006000000002BEF
(1606742410.010727) can0 0A4#0000000000000000
(1606742410.010951) can0 0A3#EEB9D71EEEB9071F
(1606742410.011183) can0 0A2#F0D8F0D865050000
(1606742410.011413) can0 0A1#B40049083908F0D8
(1606742410.011649) can0 0A0#CD00D000CF00B200
(1606742410.017047) can0 0AF#0A000D020D0266F2
(1606742410.017293) can0 0AD#4A00000000000000
(1606742410.017541) can0 0AC#00000000CA000000
(1606742410.017791) can0 0AB#0000000000000040
(1606742410.018029) can0 0AA#0700090800008001
(1606742410.018269) can0 0A8#2200ABE9F1FF0000
(1606742410.018513) can0 0A7#1A000000FAFFF7FF
(1606742410.018757) can0 0A6#FBFFF7FFFEFF0000
(1606742410.018999) can0 0A5#3A06FBFFF7FF43F0
(1606742410.019249) can0 0A4#0000000000000000
(1606742410.019473) can0 0A3#EEB9D71EEEB9F71E
(1606742410.022376) can0 002#0000323B00000000
(1606742410.026047) can0 0AF#0A0165F294FF9DFF
(1606742410.026300) can0 01C#0000000001000000
(1606742410.026550) can0 0AD#0F00000000000000
(1606742410.026796) can0 0AC#00000000CD000000
(1606742410.027046) can0 0AB#0000000000000040
(1606742410.027297) can0 079#0000000000000000
(1606742410.027535) can0 0AA#0700090800008001
(1606742410.027779) can0 0A8#2200ABE9FDFFFFFF
(1606742410.028021) can0 0A7#19000000F8FFF9FF
(1606742410.028265) can0 0A6#0000FDFFFBFF0000
(1606742410.028501) can0 0A5#4806FBFFF8FF59F1
(1606742410.028751) can0 0A4#0000000000000000
(1606742410.028979) can0 0A3#EEB9D71EEEBD071F
(1606742410.035045) can0 0AF#0A0293FF1B000000
(1606742410.035289) can0 0AD#4D00000000000000
(1606742410.035535) can0 0AC#00000200D0000000
(1606742410.035785) can0 0AB#0000000000000040
(1606742410.036023) can0 0AA#0700090800008001
(1606742410.036265) can0 0A8#2200ABE9FFFF0500
(1606742410.036507) can0 0A7#19000000FDFFFCFF
(1606742410.036753) can0 0A6#FBFF0200FFFF0000
(1606742410.036989) can0 0A5#560606000A005EF2
(1606742410.037239) can0 0A4#0000000000000000
(1606742410.037467) can0 0A3#EEB9D71EEEBD071F
(1606742410.044137) can0 0AF#0A03000001000000
(1606742410.044387) can0 0AD#1300000000000000
(1606742410.044633) can0 0AC#00000100D3000000
(1606742410.044883) can0 0AB#0000000000000040
(1606742410.045121) can0 0AA#0700090800008001
(1606742410.045359) can0 0A8#2200ABE9FCFF0300
(1606742410.045601) can0 0A7#15000000FDFF0100
(1606742410.045845) can0 0A6#FBFF0000F9FF0000
(1606742410.046081) can0 0A5#47060200020056F3
(1606742410.046331) can0 0A4#0000000000000000
(1606742410.046559) can0 0A3#EEB9D71EEEBD071F
(1606742410.053053) can0 0AF#0A04000000000000
(1606742410.053301) can0 0AD#3F00000000000000
(1606742410.053547) can0 0AC#00000200D6000000
(1606742410.053797) can0 0AB#0000000000000040
(1606742410.054035) can0 0AA#0700090800008001
(1606742410.054277) can0 0A8#2200ABE9F3FF0400
(1606742410.054525) can0 0A7#1A000000FFFFF7FF
(1606742410.054767) can0 0A6#F8FFFBFFFCFF0000
(1606742410.055003) can0 0A5#75060D00150039F4
(1606742410.055253) can0 0A4#0000000000000000
(1606742410.055481) can0 0A3#EEB9D71EEEBD071F
(1606742410.062045) can0 0AF#0A059B0400000000
(1606742410.062293) can0 0AD#0100000000000000
(1606742410.062537) can0 0AC#00000200D9000000
(1606742410.062787) can0 0AB#0000000000000040
(1606742410.063025) can0 0AA#0700090800008001
(1606742410.063267) can0 0A8#2200ABE9FFFF0500
(1606742410.063509) can0 0A7#19000000FAFF0000
(1606742410.063751) can0 0A6#FBFF0200FDFF0000
(1606742410.063985) can0 0A5#1A06F0FFE5FF12F5
(1606742410.064235) can0 0A4#0000000000000000
(1606742410.064463) can0 0A3#EEB9D71EEEBD071F
(1606742410.071041) can0 0AF#0B000D020D0265F2
(1606742410.071289) can0 0AD#3100000000000000
(1606742410.071537) can0 0AC#00000000DC000000
(1606742410.071787) can0 0AB#0000000000000040
(1606742410.072025) can0 0AA#0700090800008001
(1606742410.072267) can0 0A8#2200ABE9F6FFFEFF
(1606742410.072509) can0 0A7#1C0000000200F7FF
(1606742410.072753) can0 0A6#FEFFF8FF02000000
(1606742410.072985) can0 0A5#420609000F00E6F5
(1606742410.073235) can0 0A4#0000000000000000
(1606742410.073462) can0 0A3#EEB9D71EEEBD071F
(1606742410.080042) can0 0AF#0B0165F294FFA0FF
(1606742410.080288) can0 0AD#1100000000000000
(1606742410.080538) can0 0AC#00000000DF000000
(1606742410.080788) can0 0AB#0000000000000040
(1606742410.081031) can0 0AA#0700090000008001
(1606742410.081272) can0 0A8#2200ABE9FCFF0000
(1606742410.081514) can0 0A7#1B000000FAFFF9FF
(1606742410.081762) can0 0A6#FEFFFEFF00000000
(1606742410.082002) can0 0A5#23060000FFFFACF6
(1606742410.082252) can0 0A4#0000000000000000
(1606742410.082478) can0 0A3#EEB9D71EEEBDF71E
(1606742410.088368) can0 037#0000C35F00000301
(1606742410.089042) can0 0AF#0B0293FF1A000000
(1606742410.089286) can0 0AD#6200000000000000
(1606742410.089534) can0 0AC#00000000E2000000
(1606742410.089784) can0 0AB#0000000000000040
(1606742410.090026) can0 0AA#0700090000008001
(1606742410.090268) can0 0A8#2200ABE9FCFF0000
(1606742410.090510) can0 0A7#19000000FDFFF7FF
(1606742410.090758) can0 0A6#FEFFFEFF02000000
(1606742410.090990) can0 0A5#EF05FAFFF5FF6AF7
(1606742410.091240) can0 0A4#0000000000000000
(1606742410.091464) can0 0A3#EEB9D71EEEB9F71E
(1606742410.091716) can0 0C0#0000000001000000
(1606742410.098040) can0 0AF#0B03000001000000
(1606742410.098288) can0 0AD#2000000000000000
(1606742410.098536) can0 0AC#00000000E5000000
(1606742410.098786) can0 0AB#0000000000000040
(1606742410.099028) can0 0AA#0700090000008001
(1606742410.099268) can0 0A8#2200ABE9FAFF0100
(1606742410.099510) can0 0A7#19000000FDFFF7FF
(1606742410.099752) can0 0A6#FBFFFEFFFAFF0000
(1606742410.099990) can0 0A5#E305F9FFF4FF12F8
(1606742410.100240) can0 0A4#0000000000000000
(1606742410.100466) can0 0A3#EEB9D71EEEB9071F
(1606742410.107192) can0 0AF#0B04000000000000
(1606742410.107430) can0 0AE#1000B41911051820
(1606742410.107674) can0 0AD#4B00000000000000
(1606742410.107922) can0 0AC#00000000E8000000
(1606742410.108172) can0 0AB#0000000000000040
(1606742410.108414) can0 0AA#0700090000008001
(1606742410.108652) can0 0A9#9700FB00FF019804
(1606742410.108894) can0 0A8#2200ABE9F9FFFFFF
(1606742410.109136) can0 0A7#1A000000FDFFF5FF
(1606742410.109380) can0 0A6#FEFFFBFFFEFF0000
(1606742410.109622) can0 0A5#3B0605000800C0F8
(1606742410.109871) can0 0A4#0000000000000000
(1606742410.110097) can0 0A3#EEB9D71EEEBDF71E
(1606742410.110329) can0 0A2#F0D8F0D865050000
(1606742410.110555) can0 0A1#B30049083908F0D8
(1606742410.110789) can0 0A0#CD00D000CF00B100
(1606742410.116037) can0 0AF#0B059B0400000000
(1606742410.116283) can0 0AD#1400000000000000
(1606742410.116529) can0 0AC#0000FFFFEB000000
(1606742410.116779) can0 0AB#0000000000000040
(1606742410.117021) can0 0AA#0700090000008001
(1606742410.117261) can0 0A8#2200ABE90000FEFF
(1606742410.117503) can0 0A7#1B000000FDFFF9FF
(1606742410.117747) can0 0A6#0100FEFF00000000
(1606742410.117985) can0 0A5#2206FAFFF5FF61F9
(1606742410.118235) can0 0A4#0000000000000000
(1606742410.118461) can0 0A3#EEB9D71EEEBDF71E
(1606742410.121418) can0 002#0000323B00000000
(1606742410.125094) can0 0AF#0C000D020D0265F2
(1606742410.125340) can0 0AD#0300000000000000
(1606742410.125588) can0 0AC#00000000EE000000
(1606742410.125838) can0 0AB#0000000000000040
(1606742410.126080) can0 0AA#0700090000008001
(1606742410.126322) can0 0A8#2200ABE9FAFFFFFF
(1606742410.126568) can0 0A7#19000000FDFFFEFF
(1606742410.126812) can0 0A6#FFFFFBFF05000000
(1606742410.127050) can0 0A5#1C06F6FFEFFFF5F9
(1606742410.127300) can0 0A4#0000000000000000
(1606742410.127528) can0 0A3#EEB9D71EEEBD071F
(1606742410.128036) can0 01C#0000000001000000
(1606742410.129860) can0 079#0000000000000000
(1606742410.134096) can0 0AF#0C0165F291FFA3FF
(1606742410.134344) can0 0AD#0200000000000000
(1606742410.134592) can0 0AC#00000000F1000000
(1606742410.134842) can0 0AB#0000000000000040
(1606742410.135084) can0 0AA#0700090000008001
(1606742410.135328) can0 0A8#2200ABE905000000
(1606742410.135570) can0 0A7#1B000000FDFFFCFF
(1606742410.135816) can0 0A6#0100030000000000
(1606742410.136054) can0 0A5#3B06FFFFFEFF84FA
(1606742410.136304) can0 0A4#0000000000000000
(1606742410.136530) can0 0A3#EEB9D71EEEB9071F
(1606742410.143030) can0 0AF#0C028DFF1C000000
(1606742410.143276) can0 0AD#0300000000000000
(1606742410.143524) can0 0AC#0000FFFFF4000000
(1606742410.143774) can0 0AB#0000000000000040
(1606742410.144016) can0 0AA#0700090000008001
(1606742410.144256) can0 0A8#2200ABE90000FEFF
(1606742410.144502) can0 0A7#1A0000000000F9FF
(1606742410.144746) can0 0A6#0100FEFF00000000
(1606742410.144988) can0 0A5#3D060300050004FB
(1606742410.145238) can0 0A4#0000000000000000
(1606742410.145464) can0 0A3#EEB9D71EEEB9071F
(1606742410.152035) can0 0AF#0C03000001000000
(1606742410.152284) can0 0AD#FFFF000000000000
(1606742410.152532) can0 0AC#0000FFFFF7000000
(1606742410.152781) can0 0AB#0000000000000040
(1606742410.153023) can0 0AA#0700090000008001
(1606742410.153267) can0 0A8#2200ABE9F7FFFEFF
(1606742410.153511) can0 0A7#18000000FDFFF9FF
(1606742410.153757) can0 0A6#FFFFF8FFFEFF0000
(1606742410.153999) can0 0A5#3506FDFFFBFF7EFB
(1606742410.154249) can0 0A4#0000000000000000
(1606742410.154475) can0 0A3#EEB9D71EEEB9071F
(1606742410.161035) can0 0AF#0C04000000000000
(1606742410.161283) can0 0AD#1500000000000000
(1606742410.161533) can0 0AC#00000000FA000000
(1606742410.161783) can0 0AB#0000000000000040
(1606742410.162025) can0 0AA#0700090000008001
(1606742410.162265) can0 0A8#2200ABE9FEFF0000
(1606742410.162509) can0 0A7#1A000000FDFFF7FF
(1606742410.162753) can0 0A6#FFFFFEFFFEFF0000
(1606742410.162993) can0 0A5#1706F6FFEFFFEFFB
(1606742410.163243) can0 0A4#0000000000000000
(1606742410.163467) can0 0A3#EEB9E71EEEB9F71E
(1606742410.170117) can0 0AF#0C059B0400000000
(1606742410.170367) can0 0AD#0800000000000000
(1606742410.170617) can0 0AC#00000000FD000000
(1606742410.170867) can0 0AB#0000000000000040
(1606742410.171109) can0 0AA#0700090000008001
(1606742410.171351) can0 0A8#2200ABE9F8FF0000
(1606742410.171595) can0 0A7#1A000000F8FFF9FF
(1606742410.171839) can0 0A6#FCFFFCFFFEFF0000
(1606742410.172077) can0 0A5#440608000C0063FC
(1606742410.172327) can0 0A4#0000000000000000
(1606742410.172553) can0 0A3#EEB9D71EEEB9071F
(1606742410.179087) can0 0AF#0D000D020D0265F2
(1606742410.179337) can0 0AD#0C00000000000000
(1606742410.179585) can0 0AC#0000FFFF00010000
(1606742410.179837) can0 0AB#0000000000000040
(1606742410.180077) can0 0AA#0700090000008001
(1606742410.180317) can0 0A8#2200ABE9FEFFFDFF
(1606742410.180559) can0 0A7#19000000FDFFF7FF
(1606742410.180805) can0 0A6#0100FCFFFEFF0000
(1606742410.181040) can0 0A5#470602000200C7FC
(1606742410.181290) can0 0A4#0000000000000000
(1606742410.181516) can0 0A3#EEB9D71EEEB9071F
(1606742410.188022) can0 0AF#0D0165F294FFA3FF
(1606742410.188268) can0 0AD#0500000000000000
(1606742410.188514) can0 0AC#0000010003010000
(1606742410.188764) can0 0AB#0000000000000040
(1606742410.189006) can0 0AA#0700090000008001
(1606742410.189248) can0 0A8#2200ABE9FEFF0200
(1606742410.189492) can0 0A7#1C0000000000F3FF
(1606742410.189734) can0 0A6#FCFF0100FBFF0000
(1606742410.189970) can0 0A5#4606FFFFFEFF26FD
(1606742410.190220) can0 0A4#0000000000000000
(1606742410.190446) can0 0A3#EEB9D71EEEB9071F
(1606742410.197020) can0 0AF#0D028DFF19000000
(1606742410.197266) can0 0AD#0500000000000000
(1606742410.197514) can0 0AC#0000000006010000
(1606742410.197760) can0 037#0000C25F00000301
(1606742410.198010) can0 0AB#0000000000000040
(1606742410.198251) can0 0AA#0700090000008001
(1606742410.198491) can0 0A8#2200ABE9FEFF0000
(1606742410.198734) can0 0A7#1B000000FDFFFCFF
(1606742410.198980) can0 0A6#FFFFFFFFFEFF0000
(1606742410.199220) can0 0A5#7B060F0018007FFD
(1606742410.199470) can0 0A4#0000000000000000
(1606742410.199696) can0 0A3#EEB9D71EEEB9071F
(1606742410.201438) can0 0C0#0000000001000000
(1606742410.206028) can0 0AF#0D03000001000000
(1606742410.206266) can0 0AE#1000B41911051820
(1606742410.206512) can0 0AD#4400000000000000
(1606742410.206758) can0 0AC#0000000009010000
(1606742410.207008) can0 0AB#0000000000000040
(1606742410.207250) can0 0AA#0700090000008001
(1606742410.207484) can0 0A9#9700FB00FF019A04
(1606742410.207726) can0 0A8#2200ABE900000000
(1606742410.207968) can0 0A7#1B000000FDFFF9FF
(1606742410.208214) can0 0A6#FFFF010000000000
(1606742410.208454) can0 0A5#A00612001D00DFFD
(1606742410.208704) can0 0A4#0000000000000000
(1606742410.208930) can0 0A3#EEB9D71EEEB9071F
(1606742410.209162) can0 0A2#F0D8F0D865050000
(1606742410.209388) can0 0A1#B10049083908F0D8
(1606742410.209622) can0 0A0#CD00D000CF00B600
(1606742410.215026) can0 0AF#0D04000000000000
(1606742410.215274) can0 0AD#0C00000000000000
(1606742410.215522) can0 0AC#000000000C010000
(1606742410.215772) can0 0AB#0000000000000040
(1606742410.216014) can0 0AA#0700090000008001
(1606742410.216256) can0 0A8#2200ABE9F8FF0100
(1606742410.216500) can0 0A7#18000000FDFFF9FF
(1606742410.216740) can0 0A6#FCFFFCFF03000000
(1606742410.216984) can0 0A5#5C06000000002FFE
(1606742410.217234) can0 0A4#0000000000000000
(1606742410.217462) can0 0A3#EEB9D71EEEBD071F
(1606742410.220159) can0 002#0000323B00000000
(1606742410.224017) can0 0AF#0D059B0400000000
(1606742410.224261) can0 0AD#5600000000000000
(1606742410.224507) can0 0AC#000000000F010000
(1606742410.224757) can0 0AB#0000000000000040
(1606742410.224995) can0 0AA#0700090800008001
(1606742410.225239) can0 0A8#2200ABE901000100
(1606742410.225481) can0 0A7#1A000000FDFFFEFF
(1606742410.225725) can0 0A6#0000010003000000
(1606742410.225961) can0 0A5#1206F1FFE7FF78FE
(1606742410.226211) can0 0A4#0000000000000000
(1606742410.226439) can0 0A3#EEB9D71EEEBD071F
(1606742410.229575) can0 01C#0000000001000000
(1606742410.230576) can0 079#0000000000000000
(1606742410.233166) can0 0AF#0E000D020D0265F2
(1606742410.233412) can0 0AD#4300000000000000
(1606742410.233658) can0 0AC#0000000012010000
(1606742410.233908) can0 0AB#0000000000000040
(1606742410.234146) can0 0AA#0700090800008001
(1606742410.234384) can0 0A8#2200ABE9FCFF0100
(1606742410.234628) can0 0A7#180000000000FCFF
(1606742410.234872) can0 0A6#FDFF000000000000
(1606742410.235112) can0 0A5#0606F8FFF2FFC5FE
(1606742410.235362) can0 0A4#0000000000000000
(1606742410.235590) can0 0A3#EEB9D71EEEBD071F
(1606742410.242014) can0 0AF#0E0165F297FFA6FF
(1606742410.242260) can0 0AD#1B00000000000000
(1606742410.242510) can0 0AC#0000010015010000
(1606742410.242760) can0 0AB#0000000000000040
(1606742410.242998) can0 0AA#0700090800008001
(1606742410.243242) can0 0A8#2200ABE9FFFF0200
(1606742410.243486) can0 0A7#1C000000FAFFF5FF
(1606742410.243728) can0 0A6#FDFF0100F8FF0000
(1606742410.243962) can0 0A5#EF05EEFFE2FF05FF
(1606742410.244212) can0 0A4#0000000000000000
(1606742410.244440) can0 0A3#EEB9D71EEEBD071F
(1606742410.251012) can0 0AF#0E028DFF19000000
(1606742410.251258) can0 0AD#7300000000000000
(1606742410.251506) can0 0AC#0000000018010000
(1606742410.251756) can0 0AB#0000000000000040
(1606742410.251994) can0 0AA#0700090800008001
(1606742410.252236) can0 0A8#2200ABE9F6FFFEFF
(1606742410.252478) can0 0A7#1B000000F8FFF9FF
(1606742410.252720) can0 0A6#FDFFFAFF03000000
(1606742410.252956) can0 0A5#E9050300040044FF
(1606742410.253206) can0 0A4#0000000000000000
(1606742410.253432) can0 0A3#EEB9E71EEEBD071F
(1606742410.260022) can0 0AF#0E03000001000000
(1606742410.260268) can0 0AD#4600000000000000
(1606742410.260514) can0 0AC#000000001B010000
(1606742410.260764) can0 0AB#0000000000000040
(1606742410.261002) can0 0AA#0700090800008001
(1606742410.261244) can0 0A8#2200ABE9FFFF0000
(1606742410.261492) can0 0A7#18000000FFFFF5FF
(1606742410.261742) can0 0A6#0000000000000000
(1606742410.261978) can0 0A5#44060A00100086FF
(1606742410.262228) can0 0A4#0000000000000000
(1606742410.262454) can0 0A3#EEB9E71EEEBD071F
(1606742410.269018) can0 0AF#0E04000000000000
(1606742410.269266) can0 0AD#3F00000000000000
(1606742410.269516) can0 0AC#000000001E010000
(1606742410.269766) can0 0AB#0000000000000040
(1606742410.270004) can0 0AA#0700090800008001
(1606742410.270246) can0 0A8#2200ABE9FFFF0000
(1606742410.270488) can0 0A7#19000000FFFFFCFF
(1606742410.270734) can0 0A6#00000000F8FF0000
(1606742410.270974) can0 0A5#560608000D00BBFF
(1606742410.271224) can0 0A4#0000000000000000
(1606742410.271450) can0 0A3#EEB9D71EEEB9071F
(1606742410.278009) can0 0AF#0E059B0400000000
(1606742410.278259) can0 0AD#2F00000000000000
(1606742410.278507) can0 0AC#0000000021010000
(1606742410.278757) can0 0AB#0000000000000040
(1606742410.278995) can0 0AA#0700090800008001
(1606742410.279235) can0 0A8#2200ABE9FCFFFFFF
(1606742410.279479) can0 0A7#1B000000FAFFEEFF
(1606742410.279723) can0 0A6#0000FDFF00000000
(1606742410.279957) can0 0A5#4A0603000500F5FF
(1606742410.280207) can0 0A4#0000000000000000
(1606742410.280433) can0 0A3#EEB9D71EEEB9071F
(1606742410.287071) can0 0AF#0F000D020D0265F2
(1606742410.287319) can0 0AD#0100000000000000
(1606742410.287565) can0 0AC#0000000024010000
(1606742410.287815) can0 0AB#0000000000000040
(1606742410.288053) can0 0AA#0700090800008001
(1606742410.288291) can0 0A8#2200ABE90100FEFF
(1606742410.288531) can0 0A7#1B000000FAFFF0FF
(1606742410.288777) can0 0A6#0200000004000000
(1606742410.289013) can0 0A5#1C06F3FFEBFF2B00
(1606742410.289263) can0 0A4#0000000000000000
(1606742410.289489) can0 0A3#EEB9D71EEEB9071F
(1606742410.296151) can0 0AF#0F0165F294FFA3FF
(1606742410.296401) can0 0AD#1000000000000000
(1606742410.296647) can0 0AC#0000000027010000
(1606742410.296897) can0 0AB#0000000000000040
(1606742410.297135) can0 0AA#0700090800008001
(1606742410.297375) can0 0A8#2200ABE9F9FF0000
(1606742410.297619) can0 0A7#1A000000FDFFF9FF
(1606742410.297863) can0 0A6#FDFFFDFFFCFF0000
(1606742410.298103) can0 0A5#3006F9FFF4FF5E00
(1606742410.298353) can0 0A4#0000000000000000
(1606742410.298579) can0 0A3#EEB9D71EEEB9071F
(1606742410.305007) can0 0AF#0F0290FF18000000
(1606742410.305245) can0 0AE#1000B41911051820
(1606742410.305489) can0 0AD#4200000000000000
(1606742410.305735) can0 0AC#000000002A010000
(1606742410.305985) can0 0AB#0000000000000040
(1606742410.306223) can0 0AA#0700090800008001
(1606742410.306457) can0 0A9#9700FB00FF019904
(1606742410.306699) can0 0A8#2200ABE902000000
(1606742410.306944) can0 0A7#1A000000F8FFFEFF
(1606742410.307185) can0 037#0000C35F00000301
(1606742410.307433) can0 0A6#0000020001000000
(1606742410.307675) can0 0A5#82060F0018009300
(1606742410.307925) can0 0A4#0000000000000000
(1606742410.308151) can0 0A3#EEB9D71EEEB9071F
(1606742410.308383) can0 0A2#F0D8F0D865050000
(1606742410.308613) can0 0A1#B40049083908F0D8
(1606742410.308848) can0 0A0#CC00D000CF00B200
(1606742410.309100) can0 0C0#0000000001000000
(1606742410.314006) can0 0AF#0F03000001000000
(1606742410.314252) can0 0AD#1700000000000000
(1606742410.314498) can0 0AC#000000002D010000
(1606742410.314748) can0 0AB#0000000000000040
(1606742410.314986) can0 0AA#0700090800008001
(1606742410.315228) can0 0A8#2200ABE902000000
(1606742410.315472) can0 0A7#1B000000FDFFF0FF
(1606742410.315718) can0 0A6#0000020007000000
(1606742410.315960) can0 0A5#4A0602000200BE00
(1606742410.316210) can0 0A4#0000000000000000
(1606742410.316438) can0 0A3#EEB9D71EEEBD071F
(1606742410.322289) can0 002#0000323B00000000
(1606742410.323011) can0 0AF#0F04000000000000
(1606742410.323259) can0 0AD#1F00000000000000
(1606742410.323509) can0 0AC#0000000030010000
(1606742410.323759) can0 0AB#0000000000000040
(1606742410.323997) can0 0AA#0700090800008001
(1606742410.324239) can0 0A8#2200ABE9FFFF0000
(1606742410.324486) can0 0A7#190000000000FEFF
(1606742410.324737) can0 0A6#00000000FFFF0000
(1606742410.324975) can0 0A5#470602000200EA00
(1606742410.325225) can0 0A4#0000000000000000
(1606742410.325453) can0 0A3#EEB9D71EEEBD071F
(1606742410.329213) can0 01C#0000000001000000
(1606742410.332005) can0 0AF#0F059B0400000000
(1606742410.332255) can0 0AD#3000000000000000
(1606742410.332501) can0 0AC#0000020033010000
(1606742410.332751) can0 0AB#0000000000000040
(1606742410.332989) can0 0AA#0700090800008001
(1606742410.333229) can0 0A8#2200ABE9FEFF0500
(1606742410.333480) can0 079#0000000000000000
(1606742410.333726) can0 0A7#190000000000F5FF
(1606742410.333968) can0 0A6#FAFF0200FFFF0000
(1606742410.334206) can0 0A5#6A06020002001701
(1606742410.334456) can0 0A4#0000000000000000
(1606742410.334684) can0 0A3#EEB9D71EEEBD071F
(1606742410.341000) can0 0AF#10000D020D0265F2
(1606742410.341250) can0 0AD#2400000000000000
(1606742410.341496) can0 0AC#0000000036010000
(1606742410.341746) can0 0AB#0000000000000040
(1606742410.341984) can0 0AA#0700090800008001
(1606742410.342226) can0 0A8#2200ABE9FCFF0000
(1606742410.342466) can0 0A7#1B000000F8FFF5FF
(1606742410.342708) can0 0A6#0000FDFF01000000
(1606742410.342940) can0 0A5#8C0611001B004201
(1606742410.343190) can0 0A4#0000000000000000
(1606742410.343418) can0 0A3#EEB9D71EEEBD071F
(1606742410.350060) can0 0AF#100165F291FFA6FF
(1606742410.350304) can0 0AD#6600000000000000
(1606742410.350550) can0 0AC#0000000039010000
(1606742410.350800) can0 0AB#0000000000000040
(1606742410.351038) can0 0AA#0700090800008001
(1606742410.351278) can0 0A8#2200ABE90500FFFF
(1606742410.351522) can0 0A7#1A0000000000FCFF
(1606742410.351764) can0 0A6#02000200F9FF0000
(1606742410.351998) can0 0A5#7406F4FFECFF6801
(1606742410.352248) can0 0A4#0000000000000000
(1606742410.352476) can0 0A3#EEB9D71EEEBD071F
(1606742410.359152) can0 0AF#100287FF1C000000
(1606742410.359400) can0 0AD#3100000000000000
(1606742410.359647) can0 0AC#0000FFFF3C010000
(1606742410.359896) can0 0AB#0000000000000040
(1606742410.360134) can0 0AA#0700090800008001
(1606742410.360374) can0 0A8#2200ABE9FEFFFDFF
(1606742410.360616) can0 0A7#19000000FAFFFCFF
(1606742410.360858) can0 0A6#0200FDFF04000000
(1606742410.361094) can0 0A5#B20607000B009001
(1606742410.361344) can0 0A4#0000000000000000
(1606742410.361572) can0 0A3#EEB9D71EEEBD071F
(1606742410.368066) can0 0AF#1003000001000000
(1606742410.368316) can0 0AD#0F00000000000000
(1606742410.368562) can0 0AC#0000FEFF3F010000
(1606742410.368812) can0 0AB#0000000000000040
(1606742410.369050) can0 0AA#0700090800008001
(1606742410.369290) can0 0A8#2200ABE90200FBFF
(1606742410.369534) can0 0A7#1A000000FDFFF7FF
(1606742410.369778) can0 0A6#05000000FFFF0000
(1606742410.370012) can0 0A5#B70607000B00B101
(1606742410.370262) can0 0A4#0000000000000000
(1606742410.370490) can0 0A3#EEB9D71EEEBD071F
(1606742410.377064) can0 0AF#1004000000000000
(1606742410.377308) can0 0AD#6E00000000000000
(1606742410.377554) can0 0AC#0000000042010000
(1606742410.377804) can0 0AB#0000000000000040
(1606742410.378046) can0 0AA#0700090000008001
(1606742410.378288) can0 0A8#2200ABE900000000
(1606742410.378532) can0 0A7#1A000000FDFFF9FF
(1606742410.378782) can0 0A6#0000000001000000
(1606742410.379018) can0 0A5#4A06ECFFDEFFD901
(1606742410.379268) can0 0A4#0000000000000000
(1606742410.379496) can0 0A3#EEB9D71EEEBD071F
(1606742410.386060) can0 0AF#10059B0400000000
(1606742410.386308) can0 0AD#3800000000000000
(1606742410.386554) can0 0AC#0000000045010000
(1606742410.386804) can0 0AB#0000000000000040
(1606742410.387046) can0 0AA#0700090000008001
(1606742410.387288) can0 0A8#2200ABE900000000
(1606742410.387536) can0 0A7#1A000000FFFFF7FF
(1606742410.387786) can0 0A6#0000000004000000
(1606742410.388026) can0 0A5#7D06FFFFFEFFFB01
(1606742410.388276) can0 0A4#0000000000000000
(1606742410.388504) can0 0A3#EEB9D71EEEBD071F
(1606742410.395060) can0 0AF#11000D020D0266F2
(1606742410.395308) can0 0AD#2000000000000000
(1606742410.395556) can0 0AC#0000000048010000
(1606742410.395806) can0 0AB#0000000000000040
(1606742410.396049) can0 0AA#0700090000008001
(1606742410.396290) can0 0A8#2200ABE902000000
(1606742410.396536) can0 0A7#1B000000FFFFF5FF
(1606742410.396784) can0 0A6#0000020001000000
(1606742410.397024) can0 0A5#7006FDFFFBFF1002
(1606742410.397274) can0 0A4#0000000000000000
(1606742410.397502) can0 0A3#EEB9D71EEEBD071F
(1606742410.404056) can0 0AF#110165F29AFFA9FF
(1606742410.404294) can0 0AE#1000B41911051820
(1606742410.404540) can0 0AD#3500000000000000
(1606742410.404786) can0 0AC#000000004B010000
(1606742410.405036) can0 0AB#0000000000000040
(1606742410.405278) can0 0AA#0700090000008001
(1606742410.405516) can0 0A9#9700FB00FF019C04
(1606742410.405758) can0 0A8#2200ABE900000200
(1606742410.406000) can0 0A7#19000000FDFFFCFF
(1606742410.406244) can0 0A6#FDFF0200FFFF0000
(1606742410.406482) can0 0A5#5706F9FFF3FF2502
(1606742410.406732) can0 0A4#0000000000000000
(1606742410.406960) can0 0A3#EEB9D71EEEBD071F
(1606742410.407192) can0 0A2#F0D8F0D865050000
(1606742410.407424) can0 0A1#B50049083908F0D8
(1606742410.407660) can0 0A0#CD00CF00CF00B200
(1606742410.413060) can0 0AF#110298FF1B000000
(1606742410.413308) can0 0AD#1200000000000000
(1606742410.413554) can0 0AC#000001004E010000
(1606742410.413804) can0 0AB#0000000000000040
(1606742410.414046) can0 0AA#0700090000008001
(1606742410.414288) can0 037#0000C35F00000301
(1606742410.414530) can0 0A8#2200ABE900000000
(1606742410.414778) can0 0A7#1A00000000000000
(1606742410.415030) can0 0A6#00000000FFFF0000
(1606742410.415272) can0 0A5#7606020003003D02
(1606742410.415522) can0 0A4#0000000000000000
(1606742410.415748) can0 0A3#EEB9D71EEEB9071F
(1606742410.417843) can0 0C0#0000000001000000
(1606742410.421106) can0 002#0000323B00000000
(1606742410.422152) can0 0AF#1103000001000000
(1606742410.422398) can0 0AD#9100000000000000
(1606742410.422644) can0 0AC#0000000051010000
(1606742410.422894) can0 0AB#0000000000000040
(1606742410.423136) can0 0AA#0700090000008001
(1606742410.423378) can0 0A8#2200ABE9FDFF0000
(1606742410.423620) can0 0A7#1D000000FDFFF3FF
(1606742410.423864) can0 0A6#0000FDFF04000000
(1606742410.424100) can0 0A5#D4060C000E005B02
(1606742410.424351) can0 0A4#0000000000000000
(1606742410.424578) can0 0A3#EEB5D71EEEBD071F
(1606742410.430936) can0 01C#0000000001000000
(1606742410.431182) can0 0AF#1104000000000000
(1606742410.431428) can0 0AD#5800000000000000
(1606742410.431674) can0 0AC#0000010054010000
(1606742410.431924) can0 0AB#0000000000000040
(1606742410.432166) can0 0AA#0700090000008001
(1606742410.432408) can0 0A8#2200ABE9FEFF0200
(1606742410.432654) can0 0A7#180000000000F9FF
(1606742410.432898) can0 0A6#0200000007000000
(1606742410.433134) can0 0A5#C706030004007702
(1606742410.433384) can0 0A4#0000000000000000
(1606742410.433612) can0 0A3#EEB5D71EEEBD071F
(1606742410.434028) can0 079#0000000000000000
(1606742410.440064) can0 0AF#11059B0400000000
(1606742410.440310) can0 0AD#0E00000000000000
(1606742410.440556) can0 0AC#0000010057010000
(1606742410.440806) can0 0AB#0000000000000040
(1606742410.441048) can0 0AA#0700090000008001
(1606742410.441290) can0 0A8#2200ABE9FEFF0200
(1606742410.441536) can0 0A7#16000000FDFFFEFF
(1606742410.441782) can0 0A6#FDFF000004000000
(1606742410.442018) can0 0A5#B7060100FEFF9402
(1606742410.442268) can0 0A4#0000000000000000
(1606742410.442496) can0 0A3#EEB9D71EEEBD071F
(1606742410.449060) can0 0AF#12000D020D0265F2
(1606742410.449308) can0 0AD#2300000000000000
(1606742410.449554) can0 0AC#000000005A010000
(1606742410.449804) can0 0AB#0000000000000040
(1606742410.450046) can0 0AA#0700090000008001
(1606742410.450288) can0 0A8#2200ABE900000000
(1606742410.450530) can0 0A7#1A000000FDFFF5FF
(1606742410.450780) can0 0A6#0000000001000000
(1606742410.451016) can0 0A5#B306FFFFFAFFAA02
(1606742410.451266) can0 0A4#0000000000000000
(1606742410.451494) can0 0A3#EEB9D71EEEBD071F
(1606742410.458062) can0 0AF#120165F297FFA3FF
(1606742410.458308) can0 0AD#4400000000000000
(1606742410.458554) can0 0AC#0000FFFF5D010000
(1606742410.458804) can0 0AB#0000000000000040
(1606742410.459046) can0 0AA#0700090000008001
(1606742410.459284) can0 0A8#2200ABE90500FEFF
(1606742410.459526) can0 0A7#19000000FFFFF9FF
(1606742410.459770) can0 0A6#02000200FCFF0000
(1606742410.460008) can0 0A5#BB060F001400BB02
(1606742410.460258) can0 0A4#0000000000000000
(1606742410.460488) can0 0A3#EEB9D71EEFBD071F
(1606742410.467060) can0 0AF#120293FF1B000000
(1606742410.467304) can0 0AD#5D00000000000000
(1606742410.467550) can0 0AC#0000010060010000
(1606742410.467800) can0 0AB#0000000000000040
(1606742410.468042) can0 0AA#0700090000008001
(1606742410.468284) can0 0A8#2200ABE9FEFF0200
(1606742410.468528) can0 0A7#190000000000FCFF
(1606742410.468776) can0 0A6#FEFF0000FFFF0000
(1606742410.469014) can0 0A5#7C0601000100D102
(1606742410.469264) can0 0A4#0000000000000000
(1606742410.469494) can0 0A3#EEB9D71EEFBD071F
(1606742410.476064) can0 0AF#1203000001000000
(1606742410.476314) can0 0AD#3C00000000000000
(1606742410.476560) can0 0AC#0000FFFF63010000
(1606742410.476810) can0 0AB#0000000000000040
(1606742410.477052) can0 0AA#0700090000008001
(1606742410.477296) can0 0A8#2200ABE9FBFFFCFF
(1606742410.477540) can0 0A7#1A000000FAFFF7FF
(1606742410.477780) can0 0A6#0200FAFF0D000000
(1606742410.478016) can0 0A5#AE0605000800E602
(1606742410.478266) can0 0A4#0000000000000000
(1606742410.478494) can0 0A3#EEB9D71EEEBD071F
(1606742410.485155) can0 0AF#1204000000000000
(1606742410.485402) can0 0AD#8700000000000000
(1606742410.485648) can0 0AC#0000000066010000
(1606742410.485898) can0 0AB#0000000000000040
(1606742410.486140) can0 0AA#0700090000008001
(1606742410.486382) can0 0A8#2200ABE900000000
(1606742410.486626) can0 0A7#16000000FAFF0000
(1606742410.486878) can0 0A6#00000000FFFF0000
(1606742410.487112) can0 0A5#6B0605000700F302
(1606742410.487362) can0 0A4#0000000000000000
(1606742410.487590) can0 0A3#EEB9D71EEEBD071F
(1606742410.494060) can0 0AF#12059B0400000000
(1606742410.494306) can0 0AD#3600000000000000
(1606742410.494552) can0 0AC#0000000069010000
(1606742410.494802) can0 0AB#0000000000000040
(1606742410.495044) can0 0AA#0700090000008001
(1606742410.495286) can0 0A8#2200ABE900000000
(1606742410.495528) can0 0A7#19000000FFFFF9FF
(1606742410.495776) can0 0A6#00000000FCFF0000
(1606742410.496014) can0 0A5#B00610001A000303
(1606742410.496264) can0 0A4#0000000000000000
(1606742410.496490) can0 0A3#EEB9D71EEEB9071F
(1606742410.503122) can0 0AF#13000D020D0265F2
(1606742410.503360) can0 0AE#1000B41911051820
(1606742410.503606) can0 0AD#4100000000000000
(1606742410.503852) can0 0AC#000000006C010000
(1606742410.504102) can0 0AB#0000000000000040
(1606742410.504344) can0 0AA#0700090000008001
(1606742410.504582) can0 0A9#9700FB00FF019804
(1606742410.504824) can0 0A8#2200ABE9F8FF0100
(1606742410.505070) can0 0A7#1C000000FFFFF9FF
(1606742410.505312) can0 0A6#FEFFFBFF01000000
(1606742410.505552) can0 0A5#B906020003001703
(1606742410.505802) can0 0A4#0000000000000000
(1606742410.506030) can0 0A3#EEB9D71EEEBD071F
(1606742410.506262) can0 0A2#F0D8F0D865050000
(1606742410.506488) can0 0A1#B30049083908F0D8
(1606742410.506724) can0 0A0#CD00D000CF00B300
(1606742410.512054) can0 0AF#130165F29AFFA6FF
(1606742410.512302) can0 0AD#2E00000000000000
(1606742410.512550) can0 0AC#000000006F010000
(1606742410.512800) can0 0AB#0000000000000040
(1606742410.513042) can0 0AA#0700090000008001
(1606742410.513284) can0 0A8#2200ABE902000000
(1606742410.513528) can0 0A7#18000000FDFFF9FF
(1606742410.513774) can0 0A6#0000020004000000
(1606742410.514012) can0 0A5#7806F7FFF0FF2603
(1606742410.514262) can0 0A4#0000000000000000
(1606742410.514490) can0 0A3#EEB9D71EEEBD071F
(1606742410.520230) can0 002#0000323B00000000
(1606742410.521054) can0 0AF#130293FF1B000000
(1606742410.521300) can0 0AD#0900000000000000
(1606742410.521544) can0 0AC#0000FFFF72010000
(1606742410.521794) can0 0AB#0000000000000040
(1606742410.522036) can0 0AA#0700090000008001
(1606742410.522274) can0 0A8#2200ABE90100FEFF
(1606742410.522520) can0 0A7#1C0000000400F7FF
(1606742410.522766) can0 0A6#0200000000000000
(1606742410.523004) can0 0A5#AF060D0015002E03
(1606742410.523254) can0 0A4#0000000000000000
(1606742410.523496) can0 037#0000C35F00000301
(1606742410.523724) can0 0A3#EEB9D71EEEBD071F
(1606742410.527183) can0 0C0#0000000001000000
(1606742410.530057) can0 0AF#1303000001000000
(1606742410.530303) can0 0AD#5800000000000000
(1606742410.530549) can0 0AC#0000000075010000
(1606742410.530803) can0 01C#0000000001000000
(1606742410.531053) can0 0AB#0000000000000040
(1606742410.531291) can0 0AA#0700090800008001
(1606742410.531533) can0 0A8#2200ABE902000000
(1606742410.531779) can0 0A7#1A0000000400F9FF
(1606742410.532027) can0 0A6#0000020000000000
(1606742410.532263) can0 0A5#A606010002003803
(1606742410.532513) can0 0A4#0000000000000000
(1606742410.532741) can0 0A3#EEB9D71EEEBD071F
(1606742410.536770) can0 079#0000000000000000
(1606742410.539058) can0 0AF#1304000000000000
(1606742410.539302) can0 0AD#7600000000000000
(1606742410.539550) can0 0AC#0000FFFF78010000
(1606742410.539800) can0 0AB#0000000000000040
(1606742410.540038) can0 0AA#0700090800008001
(1606742410.540278) can0 0A8#2200ABE90200FEFF
(1606742410.540516) can0 0A7#1B000000F1FFF5FF
(1606742410.540762) can0 0A6#02000000FBFF0000
(1606742410.541000) can0 0A5#3F06F4FFEBFF3703
(1606742410.541250) can0 0A4#0000000000000000
(1606742410.541478) can0 0A3#EEB9D71EEEBD071F
(1606742410.548138) can0 0AF#13059B0400000000
(1606742410.548384) can0 0AD#8500000000000000
(1606742410.548630) can0 0AC#000000007B010000
(1606742410.548880) can0 0AB#0000000000000040
(1606742410.549118) can0 0AA#0700090800008001
(1606742410.549360) can0 0A8#2200ABE902000000
(1606742410.549604) can0 0A7#1A000000FDFFFCFF
(1606742410.549852) can0 0A6#00000200FFFF0000
(1606742410.550090) can0 0A5#50060C0014004103
(1606742410.550340) can0 0A4#0000000000000000
(1606742410.550568) can0 0A3#EEB9D71EEEBD071F
(1606742410.557046) can0 0AF#14000D020D0265F2
(1606742410.557294) can0 0AD#1200000000000000
(1606742410.557540) can0 0AC#0000FFFF7E010000
(1606742410.557790) can0 0AB#0000000000000040
(1606742410.558028) can0 0AA#0700090800008001
(1606742410.558268) can0 0A8#2200ABE90200FEFF
(1606742410.558510) can0 0A7#19000000FDFFF7FF
(1606742410.558754) can0 0A6#02000000FEFF0000
(1606742410.558994) can0 0A5#3F06040007004D03
(1606742410.559244) can0 0A4#0000000000000000
(1606742410.559470) can0 0A3#EEB9D71EEEB9071F
(1606742410.566048) can0 0AF#140165F291FFA0FF
(1606742410.566298) can0 0AD#0800000000000000
(1606742410.566546) can0 0AC#0000FFFF81010000
(1606742410.566796) can0 0AB#0000000000000040
(1606742410.567034) can0 0AA#0700090800008001
(1606742410.567276) can0 0A8#2200ABE9FAFFFEFF
(1606742410.567522) can0 0A7#1C000000FFFFF7FF
(1606742410.567766) can0 0A6#0000FAFFFEFF0000
(1606742410.568002) can0 0A5#51060A0011005203
(1606742410.568252) can0 0A4#0000000000000000
(1606742410.568478) can0 0A3#EEB9D71EEEB9071F
(1606742410.575046) can0 0AF#140290FF1A000000
(1606742410.575292) can0 0AD#5700000000000000
(1606742410.575536) can0 0AC#0000010084010000
(1606742410.575786) can0 0AB#0000000000000040
(1606742410.576024) can0 0AA#0700090800008001
(1606742410.576264) can0 0A8#2200ABE9FEFF0100
(1606742410.576508) can0 0A7#1B000000FDFFF7FF
(1606742410.576754) can0 0A6#FEFF0000FEFF0000
(1606742410.576990) can0 0A5#4F06FDFFFBFF6503
(1606742410.577240) can0 0A4#0000000000000000
(1606742410.577466) can0 0A3#EEB9D71EEEB9071F
(1606742410.584048) can0 0AF#1403000001000000
(1606742410.584294) can0 0AD#8100000000000000
(1606742410.584540) can0 0AC#0000FFFF87010000
(1606742410.584790) can0 0AB#0000000000000040
(1606742410.585028) can0 0AA#0700090800008001
(1606742410.585268) can0 0A8#2200ABE90200FEFF
(1606742410.585512) can0 0A7#1B000000FFFFF7FF
(1606742410.585756) can0 0A6#02000000FEFF0000
(1606742410.585994) can0 0A5#6906FFFFFFFF7403
(1606742410.586244) can0 0A4#0000000000000000
(1606742410.586472) can0 0A3#EEB9D71EEEBD071F
(1606742410.593050) can0 0AF#1404000000000000
(1606742410.593296) can0 0AD#2A00000000000000
(1606742410.593542) can0 0AC#000000008A010000
(1606742410.593792) can0 0AB#0000000000000040
(1606742410.594030) can0 0AA#0700090800008001
(1606742410.594272) can0 0A8#2200ABE900000000
(1606742410.594516) can0 0A7#19000000FAFFF7FF
(1606742410.594766) can0 0A6#0000000000000000
(1606742410.595006) can0 0A5#7606FFFFFFFF7903
(1606742410.595256) can0 0A4#0000000000000000
(1606742410.595482) can0 0A3#EEB9E71EEEBD071F
(1606742410.602044) can0 0AF#14059B0400000000
(1606742410.602282) can0 0AE#1000B41911051820
(1606742410.602528) can0 0AD#2B00000000000000
(1606742410.602772) can0 0AC#000002008D010000
(1606742410.603022) can0 0AB#0000000000000040
(1606742410.603262) can0 0AA#0700090800008001
(1606742410.603494) can0 0A9#9700FB00FF019904
(1606742410.603734) can0 0A8#2200ABE9FEFF0500
(1606742410.603980) can0 0A7#1A000000FAFFF9FF
(1606742410.604222) can0 0A6#FAFF0200FBFF0000
(1606742410.604456) can0 0A5#6106030005008703
(1606742410.604706) can0 0A4#0000000000000000
(1606742410.604932) can0 0A3#EEBDE71EEEBD071F
(1606742410.605164) can0 0A2#F0D8F0D865050000
(1606742410.605390) can0 0A1#B30049083908F0D8
(1606742410.605626) can0 0A0#CD00CF00CF00B200
(1606742410.611190) can0 0AF#15000D020D0265F2
(1606742410.611434) can0 0AD#4800000000000000
(1606742410.611682) can0 0AC#0000000090010000
(1606742410.611932) can0 0AB#0000000000000040
(1606742410.612170) can0 0AA#0700090800008001
(1606742410.612412) can0 0A8#2200ABE902000000
(1606742410.612652) can0 0A7#19000000F8FFFCFF
(1606742410.612898) can0 0A6#0000020003000000
(1606742410.613138) can0 0A5#4F06030004008E03
(1606742410.613388) can0 0A4#0000000000000000
(1606742410.613614) can0 0A3#EEB9E71EEEBD071F
(1606742410.619284) can0 002#0000323B00000000
(1606742410.620038) can0 0AF#150165F294FFA6FF
(1606742410.620282) can0 0AD#6500000000000000
(1606742410.620524) can0 0AC#0000FEFF93010000
(1606742410.620774) can0 0AB#0000000000000040
(1606742410.621012) can0 0AA#0700090800008001
(1606742410.621254) can0 0A8#2200ABE9FCFFFBFF
(1606742410.621500) can0 0A7#190000000000F7FF
(1606742410.621744) can0 0A6#0200FAFF06000000
(1606742410.621984) can0 0A5#2806F7FFF1FF9303
(1606742410.622234) can0 0A4#0000000000000000
(1606742410.622460) can0 0A3#EEB9D71EEEBDF71E
(1606742410.629038) can0 0AF#150293FF1B000000
(1606742410.629282) can0 0AD#9600000000000000
(1606742410.629526) can0 0AC#0000020096010000
(1606742410.629776) can0 0AB#0000000000000040
(1606742410.630014) can0 0AA#0700090800008001
(1606742410.630256) can0 0A8#2200ABE9FEFF0400
(1606742410.630500) can0 0A7#1A000000FAFFF7FF
(1606742410.630745) can0 037#0000C25F00000301
(1606742410.630989) can0 0A6#FBFF0200FBFF0000
(1606742410.631227) can0 0A5#DF05EBFFDDFF9C03
(1606742410.631477) can0 0A4#0000000000000000
(1606742410.631703) can0 0A3#EEB9D71EEEBDF71E
(1606742410.632407) can0 01C#0000000001000000
(1606742410.634380) can0 0C0#0000000001000000
(1606742410.638040) can0 0AF#1503000001000000
(1606742410.638286) can0 0AD#3300000000000000
(1606742410.638528) can0 0AC#0000FEFF99010000
(1606742410.638778) can0 0AB#0000000000000040
(1606742410.639016) can0 0AA#0700090800008001
(1606742410.639258) can0 0A8#2200ABE9FCFFFBFF
(1606742410.639510) can0 079#0000000000000000
(1606742410.639752) can0 0A7#190000000200FCFF
(1606742410.639992) can0 0A6#0200FAFF0F000000
(1606742410.640230) can0 0A5#51060D0015009F03
(1606742410.640480) can0 0A4#0000000000000000
(1606742410.640708) can0 0A3#EEB9D71EEEBD071F
(1606742410.647042) can0 0AF#1504000000000000
(1606742410.647292) can0 0AD#1800000000000000
(1606742410.647536) can0 0AC#000002009C010000
(1606742410.647785) can0 0AB#0000000000000040
(1606742410.648023) can0 0AA#0700090800008001
(1606742410.648265) can0 0A8#2200ABE9FEFF0500
(1606742410.648505) can0 0A7#1B000000FDFFFCFF
(1606742410.648751) can0 0A6#FBFF020000000000
(1606742410.648991) can0 0A5#1E0600000000A503
(1606742410.649241) can0 0A4#0000000000000000
(1606742410.649469) can0 0A3#EEB9D71EEEBD071F
(1606742410.656035) can0 0AF#15059B0400000000
(1606742410.656281) can0 0AD#2A00000000000000
(1606742410.656529) can0 0AC#000000009F010000
(1606742410.656779) can0 0AB#0000000000000040
(1606742410.657017) can0 0AA#0700090800008001
(1606742410.657257) can0 0A8#2200ABE9FEFF0100
(1606742410.657501) can0 0A7#1A000000FFFFF9FF
(1606742410.657745) can0 0A6#FEFF000006000000
(1606742410.657983) can0 0A5#FE05EFFFE3FFA703
(1606742410.658233) can0 0A4#0000000000000000
(1606742410.658461) can0 0A3#EEB9D71EEEBD071F
(1606742410.665031) can0 0AF#16000D020D0265F2
(1606742410.665275) can0 0AD#6B00000000000000
(1606742410.665523) can0 0AC#00000000A2010000
(1606742410.665773) can0 0AB#0000000000000040
(1606742410.666011) can0 0AA#0700090800008001
(1606742410.666253) can0 0A8#2200ABE902000000
(1606742410.666495) can0 0A7#1D000000FDFFF7FF
(1606742410.666739) can0 0A6#00000200FCFF0000
(1606742410.666977) can0 0A5#F305FDFFFBFFAA03
(1606742410.667227) can0 0A4#0000000000000000
(1606742410.667455) can0 0A3#EEBDD71EEEBD071F
(1606742410.674177) can0 0AF#160165F294FFA6FF
(1606742410.674423) can0 0AD#6000000000000000
(1606742410.674667) can0 0AC#00000100A5010000
(1606742410.674917) can0 0AB#0000000000000040
(1606742410.675159) can0 0AA#0700090000008001
(1606742410.675401) can0 0A8#2200ABE900000200
(1606742410.675645) can0 0A7#1A0000000000F5FF
(1606742410.675887) can0 0A6#FEFF0200FCFF0000
(1606742410.676125) can0 0A5#3B0602000200AE03
(1606742410.676375) can0 0A4#0000000000000000
(1606742410.676603) can0 0A3#EEB9D71EEEBD071F
(1606742410.683027) can0 0AF#16028DFF1E000000
(1606742410.683273) can0 0AD#3A00000000000000
(1606742410.683520) can0 0AC#00000000A8010000
(1606742410.683770) can0 0AB#0000000000000040
(1606742410.684012) can0 0AA#0700090000008001
(1606742410.684252) can0 0A8#2200ABE9FEFF0000
(1606742410.684494) can0 0A7#19000000FFFFF9FF
(1606742410.684738) can0 0A6#FEFF000004000000
(1606742410.684970) can0 0A5#C505E1FFCCFFAB03
(1606742410.685220) can0 0A4#0000000000000000
(1606742410.685448) can0 0A3#EEB9D71EEEBD071F
(1606742410.692030) can0 0AF#1603000001000000
(1606742410.692276) can0 0AD#5100000000000000
(1606742410.692522) can0 0AC#00000000AB010000
(1606742410.692772) can0 0AB#0000000000000040
(1606742410.693014) can0 0AA#0700090000008001
(1606742410.693256) can0 0A8#2200ABE900000000
(1606742410.693496) can0 0A7#1A0000000200F5FF
(1606742410.693742) can0 0A6#0000000003000000
(1606742410.693980) can0 0A5#C605EFFFE3FFA203
(1606742410.694230) can0 0A4#0000000000000000
(1606742410.694458) can0 0A3#EEB9D71EEEBD071F
(1606742410.701034) can0 0AF#1604000000000000
(1606742410.701272) can0 0AE#1000B41911051820
(1606742410.701518) can0 0AD#6A00000000000000
(1606742410.701768) can0 0AC#00000000AE010000
(1606742410.702016) can0 0AB#0000000000000040
(1606742410.702258) can0 0AA#0700090000008001
(1606742410.702492) can0 0A9#9700FB00FF019904
(1606742410.702732) can0 0A8#2200ABE902000100
(1606742410.702974) can0 0A7#18000000FAFFF9FF
(1606742410.703220) can0 0A6#00000200F3FF0000
(1606742410.703456) can0 0A5#BC05FDFFFBFF9903
(1606742410.703706) can0 0A4#0000000000000000
(1606742410.703934) can0 0A3#EEB9D71EEEBD071F
(1606742410.704168) can0 0A2#F0D8F0D865050000
(1606742410.704392) can0 0A1#B30049083908F0D8
(1606742410.704628) can0 0A0#CD00CF00CF00B200
(1606742410.710026) can0 0AF#16059B0400000000
(1606742410.710276) can0 0AD#3C00000000000000
(1606742410.710522) can0 0AC#00000000B1010000
(1606742410.710772) can0 0AB#0000000000000040
(1606742410.711014) can0 0AA#0700090000008001
(1606742410.711256) can0 0A8#2200ABE9FBFF0000
(1606742410.711502) can0 0A7#1A000000FAFFF9FF
(1606742410.711744) can0 0A6#FEFFFDFFFEFF0000
(1606742410.711980) can0 0A5#DC0511001C008403
(1606742410.712230) can0 0A4#0000000000000000
(1606742410.712460) can0 0A3#EEB9D71EEFBD071F
(1606742410.719024) can0 0AF#17000D020D0265F2
(1606742410.719272) can0 0AD#0200000000000000
(1606742410.719520) can0 0AC#00000000B4010000
(1606742410.719770) can0 0AB#0000000000000040
(1606742410.720012) can0 0AA#0700090000008001
(1606742410.720254) can0 0A8#2200ABE900000000
(1606742410.720496) can0 0A7#19000000FDFFF7FF
(1606742410.720748) can0 0A6#00000000FBFF0000
(1606742410.720984) can0 0A5#C205020003007103
(1606742410.721234) can0 0A4#0000000000000000
(1606742410.721481) can0 002#0000323B00000000
(1606742410.721711) can0 0A3#EEB9D71EEFBD071F
(1606742410.728023) can0 0AF#170165F291FFA9FF
(1606742410.728269) can0 0AD#1700000000000000
(1606742410.728513) can0 0AC#0000FFFFB7010000
(1606742410.728763) can0 0AB#0000000000000040
(1606742410.729005) can0 0AA#0700090000008001
(1606742410.729245) can0 0A8#2200ABE9F8FFFEFF
(1606742410.729493) can0 0A7#190000000000F3FF
(1606742410.729735) can0 0A6#FEFFFBFF03000000
(1606742410.729973) can0 0A5#D205030004006A03
(1606742410.730223) can0 0A4#0000000000000000
(1606742410.730451) can0 0A3#EEB9D71EEEBD071F
(1606742410.733914) can0 01C#0000000001000000
(1606742410.737106) can0 0AF#17028DFF19000000
(1606742410.737350) can0 0AD#4F00000000000000
(1606742410.737596) can0 0AC#00000000BA010000
(1606742410.737846) can0 0AB#0000000000000040
(1606742410.738088) can0 0AA#0700090000008001
(1606742410.738330) can0 0A8#2200ABE9FBFF0000
(1606742410.738574) can0 0A7#1A000000FFFFFCFF
(1606742410.738820) can0 0A6#FEFFFEFFFEFF0000
(1606742410.739060) can0 0A5#FB050D0014006103
(1606742410.739310) can0 0A4#0000000000000000
(1606742410.739538) can0 0A3#EEB9D71EEEBD071F
(1606742410.740308) can0 037#0000C35E00000301
(1606742410.742233) can0 079#0000000000000000
(1606742410.743678) can0 0C0#0000000001000000
(1606742410.746028) can0 0AF#1703000001000000
(1606742410.746278) can0 0AD#3900000000000000
(1606742410.746526) can0 0AC#00000000BD010000
(1606742410.746776) can0 0AB#0000000000000040
(1606742410.747018) can0 0AA#0700090000008001
(1606742410.747260) can0 0A8#2200ABE900000000
(1606742410.747504) can0 0A7#1A000000FFFFF9FF
(1606742410.747756) can0 0A6#00000000FBFF0000
(1606742410.747990) can0 0A5#E505FCFFF9FF6503
(1606742410.748240) can0 0A4#0000000000000000
(1606742410.748470) can0 0A3#EEB9D71EEFBD071F
(1606742410.755024) can0 0AF#1704000000000000
(1606742410.755271) can0 0AD#4E00000000000000
(1606742410.755518) can0 0AC#0000FFFFC0010000
(1606742410.755768) can0 0AB#0000000000000040
(1606742410.756010) can0 0AA#0700090000008001
(1606742410.756254) can0 0A8#2200ABE90000FDFF
(1606742410.756494) can0 0A7#190000000900F9FF
(1606742410.756738) can0 0A6#0200FEFF00000000
(1606742410.756978) can0 0A5#3F060F0019006903
(1606742410.757228) can0 0A4#0000000000000000
(1606742410.757456) can0 0A3#EEBDD71EEFBD071F
(1606742410.764016) can0 0AF#17059B0400000000
(1606742410.764264) can0 0AD#3700000000000000
(1606742410.764512) can0 0AC#00000000C3010000
(1606742410.764762) can0 0AB#0000000000000040
(1606742410.765004) can0 0AA#0700090000008001
(1606742410.765246) can0 0A8#2200ABE900000000
(1606742410.765492) can0 0A7#18000000FDFFFCFF
(1606742410.765744) can0 0A6#00000000FBFF0000
(1606742410.765981) can0 0A5#3E060C0013006D03
(1606742410.766231) can0 0A4#0000000000000000
(1606742410.766459) can0 0A3#EEBDD71EEEBD071F
(1606742410.773017) can0 0AF#18000D020D0265F2
(1606742410.773263) can0 0AD#2700000000000000
(1606742410.773509) can0 0AC#00000000C6010000
(1606742410.773759) can0 0AB#0000000000000040
(1606742410.774001) can0 0AA#0700090000008001
(1606742410.774241) can0 0A8#2200ABE9FEFF0100
(1606742410.774487) can0 0A7#1A000000FFFFFCFF
(1606742410.774731) can0 0A6#FEFF0000FEFF0000
(1606742410.774969) can0 0A5#E205F3FFE9FF6D03
(1606742410.775219) can0 0A4#0000000000000000
(1606742410.775447) can0 0A3#EEB9D71EEEBD071F
(1606742410.782009) can0 0AF#180165F294FFA6FF
(1606742410.782255) can0 0AD#2900000000000000
(1606742410.782501) can0 0AC#00000100C9010000
(1606742410.782751) can0 0AB#0000000000000040
(1606742410.782993) can0 0AA#0700090000008001
(1606742410.783235) can0 0A8#2200ABE9FBFF0200
(1606742410.783477) can0 0A7#19000000FDFFF7FF
(1606742410.783725) can0 0A6#FBFF000000000000
(1606742410.783963) can0 0A5#FA0506000A006A03
(1606742410.784213) can0 0A4#0000000000000000
(1606742410.784441) can0 0A3#EEB9D71EEEBD071F
(1606742410.791009) can0 0AF#180290FF1A000000
(1606742410.791253) can0 0AD#5900000000000000
(1606742410.791497) can0 0AC#00000100CC010000
(1606742410.791747) can0 0AB#0000000000000040
(1606742410.791989) can0 0AA#0700090000008001
(1606742410.792227) can0 0A8#2200ABE90A000300
(1606742410.792475) can0 0A7#1C000000FFFFF5FF
(1606742410.792719) can0 0A6#00000800FEFF0000
(1606742410.792959) can0 0A5#1F06050008006B03
(1606742410.793209) can0 0A4#0000000000000000
(1606742410.793437) can0 0A3#EEB9D71EEEBD071F
(1606742410.800163) can0 0AF#1803000001000000
(1606742410.800401) can0 0AE#1000B41911051820
(1606742410.800647) can0 0AD#3400000000000000
(1606742410.800893) can0 0AC#00000000CF010000
(1606742410.801143) can0 0AB#0000000000000040
(1606742410.801385) can0 0AA#0700090000008001
(1606742410.801623) can0 0A9#9700FB00FF019804
(1606742410.801865) can0 0A8#2200ABE9FBFF0000
(1606742410.802111) can0 0A7#1C000000FDFFFCFF
(1606742410.802355) can0 0A6#FEFFFEFFFBFF0000
(1606742410.802595) can0 0A5#FC05F0FFE5FF7403
(1606742410.802845) can0 0A4#0000000000000000
(1606742410.803074) can0 0A3#EEB9D71EEEBD071F
(1606742410.803305) can0 0A2#F0D8F0D865050000
(1606742410.803535) can0 0A1#B40049083908F0D8
(1606742410.803771) can0 0A0#CD00CF00CF00B200
(1606742410.809015) can0 0AF#1804000000000000
(1606742410.809261) can0 0AD#0B00000000000000
(1606742410.809505) can0 0AC#0000FEFFD2010000
(1606742410.809755) can0 0AB#0000000000000040
(1606742410.809997) can0 0AA#0700090000008001
(1606742410.810239) can0 0A8#2200ABE90300FBFF
(1606742410.810483) can0 0A7#1A000000FDFFF7FF
(1606742410.810725) can0 0A6#0500FEFFFEFF0000
(1606742410.810961) can0 0A5#F305F3FFEBFF6F03
(1606742410.811211) can0 0A4#0000000000000000
(1606742410.811439) can0 0A3#EEB9D71EEEBD071F
(1606742410.818005) can0 0AF#18059B0400000000
(1606742410.818253) can0 0AD#3E00000000000000
(1606742410.818497) can0 0AC#00000200D5010000
(1606742410.818747) can0 0AB#0000000000000040
(1606742410.818989) can0 0AA#0700090000008001
(1606742410.819231) can0 0A8#2200ABE9FEFF0400
(1606742410.819479) can0 0A7#18000000FFFFF9FF
(1606742410.819723) can0 0A6#FBFF0200FEFF0000
(1606742410.819961) can0 0A5#14060A0010007403
(1606742410.820211) can0 0A4#0000000000000000
(1606742410.820439) can0 0A3#EEB9D71EEEBD071F
(1606742410.820687) can0 002#0000323B00000000
(1606742410.827005) can0 0AF#19000D020D0265F2
(1606742410.827251) can0 0AD#0B00000000000000
(1606742410.827501) can0 0AC#00000000D8010000
(1606742410.827751) can0 0AB#0000000000000040
(1606742410.827989) can0 0AA#0700090800008001
(1606742410.828231) can0 0A8#2200ABE9FEFFFEFF
(1606742410.828473) can0 0A7#1B000000FAFFF9FF
(1606742410.828717) can0 0A6#0000FEFFFBFF0000
(1606742410.828955) can0 0A5#0606010002007203
(1606742410.829205) can0 0A4#0000000000000000
(1606742410.829433) can0 0A3#EEB9D71EEEBD071F
(1606742410.833605) can0 01C#0000000001000000
(1606742410.835999) can0 0AF#190165F294FFA6FF
(1606742410.836245) can0 0AD#0300000000000000
(1606742410.836493) can0 0AC#00000000DB010000
(1606742410.836743) can0 0AB#0000000000000040
(1606742410.836981) can0 0AA#0700090800008001
(1606742410.837221) can0 0A8#2200ABE903000000
(1606742410.837469) can0 0A7#18000000FFFFF9FF
(1606742410.837715) can0 0A6#0000020003000000
(1606742410.837957) can0 0A5#0106FFFFFEFF7A03
(1606742410.838207) can0 0A4#0000000000000000
(1606742410.838435) can0 0A3#EEB9D71EEEBD071F
(1606742410.844936) can0 079#0000000000000000
(1606742410.845174) can0 0AF#19028DFF1A000000
(1606742410.845420) can0 0AD#4000000000000000
(1606742410.845664) can0 0AC#0000FEFFDE010000
(1606742410.845914) can0 0AB#0000000000000040
(1606742410.846151) can0 0AA#0700090800008001
(1606742410.846391) can0 0A8#2200ABE9FEFFFBFF
(1606742410.846637) can0 0A7#140000000400FCFF
(1606742410.846879) can0 0A6#0300FBFFFEFF0000
(1606742410.847121) can0 0A5#3D060C0013007F03
(1606742410.847371) can0 0A4#0000000000000000
(1606742410.847599) can0 0A3#EEB9D71EEEBD071F
(1606742410.849343) can0 037#0000C35F00000301
(1606742410.852910) can0 0C0#0000000001000000
(1606742410.854006) can0 0AF#1903000001000000
(1606742410.854256) can0 0AD#1300000000000000
(1606742410.854502) can0 0AC#00000000E1010000
(1606742410.854752) can0 0AB#0000000000000040
(1606742410.854990) can0 0AA#0700090800008001
(1606742410.855232) can0 0A8#2200ABE900000000
(1606742410.855477) can0 0A7#1A000000F8FFFCFF
(1606742410.855722) can0 0A6#00000000FEFF0000
(1606742410.855964) can0 0A5#0706FAFFF6FF8903
(1606742410.856214) can0 0A4#0000000000000000
(1606742410.856442) can0 0A3#EEB9D71EEEBD071F
(1606742410.863156) can0 0AF#1904000000000000
(1606742410.863404) can0 0AD#3100000000000000
(1606742410.863650) can0 0AC#00000000E4010000
(1606742410.863900) can0 0AB#0000000000000040
(1606742410.864138) can0 0AA#0700090800008001
(1606742410.864378) can0 0A8#2200ABE9FEFF0100
(1606742410.864618) can0 0A7#1D000000FDFFF9FF
(1606742410.864862) can0 0A6#FEFF000002000000
(1606742410.865098) can0 0A5#47060C0014009203
(1606742410.865348) can0 0A4#0000000000000000
(1606742410.865577) can0 0A3#EEB9D71EEEBD071F
(1606742410.872002) can0 0AF#19059B0400000000
(1606742410.872248) can0 0AD#4A00000000000000
(1606742410.872494) can0 0AC#00000000E7010000
(1606742410.872744) can0 0AB#0000000000000040
(1606742410.872982) can0 0AA#0700090800008001
(1606742410.873224) can0 0A8#2200ABE906000000
(1606742410.873464) can0 0A7#1B000000FAFFFCFF
(1606742410.873704) can0 0A6#03000200FEFF0000
(1606742410.873938) can0 0A5#EF05FDFFFAFF9403
(1606742410.874188) can0 0A4#0000000000000000
(1606742410.874416) can0 0A3#EEB9D71EEEBD071F
(1606742410.881062) can0 0AF#1A000D020D0265F2
(1606742410.881308) can0 0AD#2900000000000000
(1606742410.881556) can0 0AC#00000000EA010000
(1606742410.881806) can0 0AB#0000000000000040
(1606742410.882044) can0 0AA#0700090800008001
(1606742410.882284) can0 0A8#2200ABE9FEFF0000
(1606742410.882528) can0 0A7#1A000000FAFFF7FF
(1606742410.882776) can0 0A6#FEFF0000FBFF0000
(1606742410.883014) can0 0A5#FC0507000C008F03
(1606742410.883264) can0 0A4#0000000000000000
(1606742410.883490) can0 0A3#EEB9D71EEEBDF71E
(1606742410.890060) can0 0AF#1A0165F291FFA3FF
(1606742410.890306) can0 0AD#0400000000000000
(1606742410.890550) can0 0AC#0000FEFFED010000
(1606742410.890800) can0 0AB#0000000000000040
(1606742410.891038) can0 0AA#0700090800008001
(1606742410.891279) can0 0A8#2200ABE9F8FFFBFF
(1606742410.891522) can0 0A7#1A0000000000FCFF
(1606742410.891766) can0 0A6#0000F8FFFBFF0000
(1606742410.892006) can0 0A5#FB05050008008903
(1606742410.892256) can0 0A4#0000000000000000
(1606742410.892484) can0 0A3#EEB9D71EEEBD071F
(1606742410.899064) can0 0AF#1A0287FF1B000000
(1606742410.899302) can0 0AE#1000B41911051820
(1606742410.899552) can0 0AD#0F00000000000000
(1606742410.899802) can0 0AC#00000000F0010000
(1606742410.900052) can0 0AB#0000000000000040
(1606742410.900290) can0 0AA#0700090800008001
(1606742410.900528) can0 0A9#9700FB00FF019804
(1606742410.900770) can0 0A8#2200ABE9FBFF0000
(1606742410.901014) can0 0A7#1A000000FDFFF9FF
(1606742410.901258) can0 0A6#FEFFFEFFFBFF0000
(1606742410.901492) can0 0A5#F005010002008803
(1606742410.901742) can0 0A4#0000000000000000
(1606742410.901970) can0 0A3#EEB9D71EEEBD071F
(1606742410.902202) can0 0A2#F0D8F0D865050000
(1606742410.902432) can0 0A1#B40049083908F0D8
(1606742410.902668) can0 0A0#CD00CF00CF00B200
(1606742410.908062) can0 0AF#1A03000001000000
(1606742410.908308) can0 0AD#4100000000000000
(1606742410.908554) can0 0AC#0000FFFFF3010000
(1606742410.908804) can0 0AB#0000000000000040
(1606742410.909042) can0 0AA#0700090800008001
(1606742410.909284) can0 0A8#2200ABE9FEFFFEFF
(1606742410.909528) can0 0A7#1A0000000000FCFF
(1606742410.909774) can0 0A6#0000FDFFFEFF0000
(1606742410.910008) can0 0A5#ED0509000E008503
(1606742410.910258) can0 0A4#0000000000000000
(1606742410.910487) can0 0A3#EEB9D71EEEBD071F
(1606742410.917068) can0 0AF#1A04000000000000
(1606742410.917316) can0 0AD#7C00000000000000
(1606742410.917562) can0 0AC#00000100F6010000
(1606742410.917812) can0 0AB#0000000000000040
(1606742410.918050) can0 0AA#0700090800008001
(1606742410.918292) can0 0A8#2200ABE900000000
(1606742410.918538) can0 0A7#1C000000FDFFF5FF
(1606742410.918788) can0 0A6#0000000000000000
(1606742410.919022) can0 0A5#5106180027009103
(1606742410.919272) can0 0A4#0000000000000000
(1606742410.919500) can0 0A3#EEB9D71EEEBD071F
(1606742410.919747) can0 002#0000323B00000000
(1606742410.926151) can0 0AF#1A059B0400000000
(1606742410.926397) can0 0AD#BC00000000000000
(1606742410.926645) can0 0AC#00000000F9010000
(1606742410.926895) can0 0AB#0000000000000040
(1606742410.927133) can0 0AA#0700090800008001
(1606742410.927373) can0 0A8#2200ABE9FEFF0100
(1606742410.927617) can0 0A7#1A000000FFFFFCFF
(1606742410.927865) can0 0A6#FEFF0000FBFF0000
(1606742410.928099) can0 0A5#99061D0029008F03
(1606742410.928349) can0 0A4#0000000000000000
(1606742410.928577) can0 0A3#EEB9D71EEEBD071F
(1606742410.935061) can0 0AF#1B000D020D0265F2
(1606742410.935315) can0 01C#0000000001000000
(1606742410.935557) can0 0AD#9E01000000000000
(1606742410.935807) can0 0AC#00000000FC010000
(1606742410.936057) can0 0AB#0000000000000040
(1606742410.936295) can0 0AA#0700090800008001
(1606742410.936535) can0 0A8#2200ABE90300FFFF
(1606742410.936783) can0 0A7#1A000000FFFFF3FF
(1606742410.937027) can0 0A6#0300FDFF00000000
(1606742410.937263) can0 0A5#270710001B009903
(1606742410.937513) can0 0A4#0000000000000000
(1606742410.937741) can0 0A3#EEB9D71EEEBD071F
(1606742410.944061) can0 0AF#1B0165F291FFA3FF
(1606742410.944307) can0 0AD#B600000000000000
(1606742410.944553) can0 0AC#0000FEFFFF010000
(1606742410.944803) can0 0AB#0000000000000040
(1606742410.945041) can0 0AA#0700090800008001
(1606742410.945283) can0 0A8#2200ABE90800FBFF
(1606742410.945525) can0 0A7#1A000000FAFFFCFF
(1606742410.945776) can0 079#0000000000000000
(1606742410.946018) can0 0A6#FEFFFDFFFEFF0000
(1606742410.946258) can0 0A5#2707FFFFFEFFA403
(1606742410.946508) can0 0A4#0000000000000000
(1606742410.946736) can0 0A3#EDB9D71EEEBD071F
(1606742410.953060) can0 0AF#1B028DFF1A000000
(1606742410.953306) can0 0AD#8500000000000000
(1606742410.953556) can0 0AC#0000000002020000
(1606742410.953806) can0 0AB#0000000000000040
(1606742410.954044) can0 0AA#0700090800008001
(1606742410.954284) can0 0A8#2200ABE9FEFFFFFF
(1606742410.954528) can0 0A7#19000000FFFF0000
(1606742410.954774) can0 0A6#0300FDFFFBFF0000
(1606742410.955010) can0 0A5#C206F3FFE9FFAC03
(1606742410.955260) can0 0A4#0000000000000000
(1606742410.955488) can0 0A3#EDB9D71EEEBD071F
(1606742410.956264) can0 037#0000C25F00000301
(1606742410.959721) can0 0C0#0000000001000000
(1606742410.962068) can0 0AF#1B03000001000000
(1606742410.962314) can0 0AD#2600000000000000
(1606742410.962560) can0 0AC#0000010005020000
(1606742410.962810) can0 0AB#0000000000000040
(1606742410.963048) can0 0AA#0700090800008001
(1606742410.963290) can0 0A8#2200ABE9FBFF0200
(1606742410.963534) can0 0A7#18000000FDFFF9FF
(1606742410.963775) can0 0A6#FEFFFDFF00000000
(1606742410.964009) can0 0A5#18070B001A00B603
(1606742410.964259) can0 0A4#0000000000000000
(1606742410.964487) can0 0A3#EEB9D71EEEBD071F
(1606742410.971069) can0 0AF#1B04000000000000
(1606742410.971315) can0 0AD#5800000000000000
(1606742410.971561) can0 0AC#0000000008020000
(1606742410.971811) can0 0AB#0000000000000040
(1606742410.972049) can0 0AA#0700090800008001
(1606742410.972289) can0 0A8#2200ABE9FEFF0100
(1606742410.972531) can0 0A7#19000000FAFFF5FF
(1606742410.972779) can0 0A6#FEFF0000FBFF0000
(1606742410.973015) can0 0A5#C306F9FFF5FFBD03
(1606742410.973265) can0 0A4#0000000000000000
(1606742410.973493) can0 0A3#EEB9D71EEEBD071F
(1606742410.980061) can0 0AF#1B059B0400000000
(1606742410.980307) can0 0AD#4600000000000000
(1606742410.980555) can0 0AC#0000FFFF0B020000
(1606742410.980805) can0 0AB#0000000000000040
(1606742410.981047) can0 0AA#0700090000008001
(1606742410.981287) can0 0A8#2200ABE9FFFFFCFF
(1606742410.981533) can0 0A7#1C0000000000FEFF
(1606742410.981777) can0 0A6#0200FDFFFEFF0000
(1606742410.982017) can0 0A5#AA06F8FFF2FFC003
(1606742410.982267) can0 0A4#0000000000000000
(1606742410.982495) can0 0A3#EEB9D71EEEBD071F
(1606742410.989207) can0 0AF#1C000D020D0265F2
(1606742410.989457) can0 0AD#0F00000000000000
(1606742410.989705) can0 0AC#000001000E020000
(1606742410.989955) can0 0AB#0000000000000040
(1606742410.990197) can0 0AA#0700090000008001
(1606742410.990437) can0 0A8#2200ABE9FEFF0100
(1606742410.990681) can0 0A7#1A0000000000F7FF
(1606742410.990929) can0 0A6#FEFF0000FBFF0000
(1606742410.991165) can0 0A5#A106FAFFF6FFC703
(1606742410.991415) can0 0A4#0000000000000000
(1606742410.991643) can0 0A3#EEB9D71EEEBD071F
(1606742410.998065) can0 0AF#1C0165F291FFA6FF
(1606742410.998303) can0 0AE#1000B41911051820
(1606742410.998547) can0 0AD#4800000000000000
(1606742410.998795) can0 0AC#0000010011020000
(1606742410.999045) can0 0AB#0000000000000040
(1606742410.999287) can0 0AA#0700090000008001
(1606742410.999521) can0 0A9#9700FB00FF018704
(1606742410.999761) can0 0A8#2200ABE9FEFF0100
(1606742411.000003) can0 0A7#16000000FDFFF9FF
(1606742411.000249) can0 0A6#FEFF000000000000
(1606742411.000483) can0 0A5#A30605000700CD03
(1606742411.000733) can0 0A4#0000000000000000
(1606742411.000961) can0 0A3#EEB9D71EEEBD071F
(1606742411.001193) can0 0A2#F0D8F0D865050000
(1606742411.001421) can0 0A1#B20049083908F0D8
(1606742411.001655) can0 0A0#CD00CF00CF00B000
(1606742411.007063) can0 0AF#1C0290FF18000000
(1606742411.007311) can0 0AD#1900000000000000
(1606742411.007553) can0 0AC#0000FEFF14020000
(1606742411.007803) can0 0AB#0000000000000040
(1606742411.008045) can0 0AA#0700090000008001
(1606742411.008289) can0 0A8#2200ABE9FBFFFCFF
(1606742411.008533) can0 0A7#1A000000FDFFFCFF
(1606742411.008775) can0 0A6#0200FAFF00000000
(1606742411.009013) can0 0A5#B20602000300D303
(1606742411.009263) can0 0A4#0000000000000000
(1606742411.009489) can0 0A3#EEB9D71EEEBDF71E
(1606742411.016065) can0 0AF#1C03000001000000
(1606742411.016313) can0 0AD#2E00000000000000
(1606742411.016557) can0 0AC#0000FFFF17020000
(1606742411.016807) can0 0AB#0000000000000040
(1606742411.017049) can0 0AA#0700090000008001
(1606742411.017289) can0 0A8#2200ABE90800FEFF
(1606742411.017535) can0 0A7#1A000000F8FFF5FF
(1606742411.017777) can0 0A6#02000500FEFF0000
(1606742411.018009) can0 0A5#CF0611001D00D403
(1606742411.018259) can0 0A4#0000000000000000
(1606742411.018488) can0 0A3#EEB9D71EEEBDF71E
(1606742411.021745) can0 002#0000323B00000000
(1606742411.025065) can0 0AF#1C04000000000000
(1606742411.025315) can0 0AD#3C00000000000000
(1606742411.025561) can0 0AC#000002001A020000
(1606742411.025811) can0 0AB#0000000000000040
(1606742411.026053) can0 0AA#0700090000008001
(1606742411.026291) can0 0A8#2200ABE9FCFF0500
(1606742411.026535) can0 0A7#1B000000FFFFF9FF
(1606742411.026783) can0 0A6#FBFF000000000000
(1606742411.027017) can0 0A5#E8060D001600DC03
(1606742411.027267) can0 0A4#0000000000000000
(1606742411.027495) can0 0A3#EEB9D71EEEBD071F
(1606742411.034056) can0 0AF#1C059B0400000000
(1606742411.034300) can0 0AD#B400000000000000
(1606742411.034550) can0 0AC#000001001D020000
(1606742411.034800) can0 0AB#0000000000000040
(1606742411.035042) can0 0AA#0700090000008001
(1606742411.035284) can0 0A8#2200ABE9FBFF0200
(1606742411.035526) can0 0A7#1B000000FDFFF9FF
(1606742411.035772) can0 0A6#FBFF0000FBFF0000
(1606742411.036008) can0 0A5#FB05D6FFBAFFD103
(1606742411.036258) can0 0A4#0000000000000000
(1606742411.036489) can0 0A3#EEB9D71EEEBD071F
(1606742411.037017) can0 01C#0000000001000000
(1606742411.043055) can0 0AF#1D000D020D0265F2
(1606742411.043301) can0 0AD#5800000000000000
(1606742411.043549) can0 0AC#0000000020020000
(1606742411.043799) can0 0AB#0000000000000040
(1606742411.044041) can0 0AA#0700090000008001
(1606742411.044283) can0 0A8#2200ABE900000000
(1606742411.044525) can0 0A7#1A00000002000600
(1606742411.044771) can0 0A6#000000000E000000
(1606742411.045005) can0 0A5#680603000500D803
(1606742411.045255) can0 0A4#0000000000000000
(1606742411.045483) can0 0A3#EDB9D71EEEBD071F
(1606742411.048299) can0 079#0000000000000000
(1606742411.052199) can0 0AF#1D0165F294FFA3FF
(1606742411.052445) can0 0AD#6000000000000000
(1606742411.052690) can0 0AC#0000000023020000
(1606742411.052940) can0 0AB#0000000000000040
(1606742411.053182) can0 0AA#0700090000008001
(1606742411.053424) can0 0A8#2200ABE900000000
(1606742411.053666) can0 0A7#19000000FDFFF7FF
(1606742411.053912) can0 0A6#00000000FEFF0000
(1606742411.054148) can0 0A5#A70606000A00DF03
(1606742411.054398) can0 0A4#0000000000000000
(1606742411.054626) can0 0A3#EDB9D71EEEBD071F
(1606742411.061052) can0 0AF#1D028DFF1B000000
(1606742411.061300) can0 0AD#1F00000000000000
(1606742411.061544) can0 0AC#0000FEFF26020000
(1606742411.061794) can0 0AB#0000000000000040
(1606742411.062036) can0 0AA#0700090000008001
(1606742411.062278) can0 0A8#2200ABE90700FBFF
(1606742411.062520) can0 0A7#190000000200FCFF
(1606742411.062760) can0 0A6#05000200FEFF0000
(1606742411.062994) can0 0A5#A90606000900E103
(1606742411.063244) can0 0A4#0000000000000000
(1606742411.063472) can0 0A3#EEB9D71EEEBD071F
